Open On-Chip Debugger 0.10.0-dirty (2019-04-15-14:08)
Licensed under GNU GPL v2
For bug reports, read
	http://openocd.org/doc/doxygen/bugs.html
User : 13 1 command.c:544 command_print(): debug_level: 3
Debug: 14 1 configuration.c:42 add_script_search_dir(): adding /home/amalki/prjs/microROS/soft/apps/decoder/ext/openocd/tcl
Debug: 15 1 options.c:181 add_default_dirs(): bindir=/usr/local/bin
Debug: 16 1 options.c:182 add_default_dirs(): pkgdatadir=/usr/local/share/openocd
Debug: 17 1 options.c:183 add_default_dirs(): exepath=/home/amalki/prjs/microROS/soft/apps/decoder/apps/.libs
Debug: 18 1 options.c:184 add_default_dirs(): bin2data=../share/openocd
Debug: 19 1 configuration.c:42 add_script_search_dir(): adding /home/amalki/.openocd
Debug: 20 1 configuration.c:42 add_script_search_dir(): adding /home/amalki/prjs/microROS/soft/apps/decoder/apps/.libs/../share/openocd/site
Debug: 21 1 configuration.c:42 add_script_search_dir(): adding /home/amalki/prjs/microROS/soft/apps/decoder/apps/.libs/../share/openocd/scripts
Debug: 22 1 configuration.c:82 find_file(): found /home/amalki/prjs/microROS/soft/apps/decoder/ext/openocd/tcl/interface/stlink-v2.cfg
Debug: 23 1 command.c:143 script_debug(): command - ocd_command ocd_command type ocd_interface hla
Debug: 24 1 command.c:143 script_debug(): command - interface ocd_interface hla
Debug: 26 1 command.c:364 register_command_handler(): registering 'ocd_hla_device_desc'...
Debug: 27 1 command.c:364 register_command_handler(): registering 'ocd_hla_serial'...
Debug: 28 1 command.c:364 register_command_handler(): registering 'ocd_hla_layout'...
Debug: 29 1 command.c:364 register_command_handler(): registering 'ocd_hla_vid_pid'...
Debug: 30 1 command.c:364 register_command_handler(): registering 'ocd_hla_command'...
Debug: 31 1 command.c:143 script_debug(): command - ocd_command ocd_command type ocd_hla_layout stlink
Debug: 32 1 command.c:143 script_debug(): command - hla_layout ocd_hla_layout stlink
Debug: 34 1 hla_interface.c:239 hl_interface_handle_layout_command(): hl_interface_handle_layout_command
Debug: 35 1 command.c:143 script_debug(): command - ocd_command ocd_command type ocd_hla_device_desc ST-LINK/V2
Debug: 36 1 command.c:143 script_debug(): command - hla_device_desc ocd_hla_device_desc ST-LINK/V2
Debug: 38 1 hla_interface.c:213 hl_interface_handle_device_desc_command(): hl_interface_handle_device_desc_command
Debug: 39 1 command.c:143 script_debug(): command - ocd_command ocd_command type ocd_hla_vid_pid 0x0483 0x3748
Debug: 40 1 command.c:143 script_debug(): command - hla_vid_pid ocd_hla_vid_pid 0x0483 0x3748
Debug: 42 1 hla_interface.c:267 hl_interface_handle_vid_pid_command(): hl_interface_handle_vid_pid_command
Debug: 43 1 configuration.c:82 find_file(): found /home/amalki/prjs/microROS/soft/apps/decoder/ext/openocd/tcl/target/stm32f407_pe.cfg
Debug: 44 1 configuration.c:82 find_file(): found /home/amalki/prjs/microROS/soft/apps/decoder/ext/openocd/tcl/interface/stlink-v2.cfg
Debug: 45 1 command.c:143 script_debug(): command - ocd_command ocd_command type ocd_interface hla
Debug: 46 1 command.c:143 script_debug(): command - interface ocd_interface hla
Warn : 48 1 adapter.c:131 handle_interface_command(): Interface already configured, ignoring
Debug: 49 1 command.c:143 script_debug(): command - ocd_command ocd_command type ocd_hla_layout stlink
Debug: 50 1 command.c:143 script_debug(): command - hla_layout ocd_hla_layout stlink
Debug: 52 1 hla_interface.c:239 hl_interface_handle_layout_command(): hl_interface_handle_layout_command
Error: 53 1 hla_interface.c:248 hl_interface_handle_layout_command(): already specified hl_layout stlink
Debug: 54 1 command.c:143 script_debug(): command - ocd_command ocd_command type ocd_hla_device_desc ST-LINK/V2
Debug: 55 1 command.c:143 script_debug(): command - hla_device_desc ocd_hla_device_desc ST-LINK/V2
Debug: 57 1 hla_interface.c:213 hl_interface_handle_device_desc_command(): hl_interface_handle_device_desc_command
Debug: 58 1 command.c:143 script_debug(): command - ocd_command ocd_command type ocd_hla_vid_pid 0x0483 0x3748
Debug: 59 1 command.c:143 script_debug(): command - hla_vid_pid ocd_hla_vid_pid 0x0483 0x3748
Debug: 61 1 hla_interface.c:267 hl_interface_handle_vid_pid_command(): hl_interface_handle_vid_pid_command
Debug: 62 1 configuration.c:82 find_file(): found /home/amalki/prjs/microROS/soft/apps/decoder/ext/openocd/tcl/target/stm32f4x.cfg
Debug: 63 2 configuration.c:82 find_file(): found /home/amalki/prjs/microROS/soft/apps/decoder/ext/openocd/tcl/target/swj-dp.tcl
Debug: 64 2 command.c:143 script_debug(): command - ocd_command ocd_command type ocd_transport select
Debug: 65 2 command.c:143 script_debug(): command - ocd_transport ocd_transport select
Info : 66 2 transport.c:286 jim_transport_select(): auto-selecting first available session transport "hla_swd". To override use 'transport select <transport>'.
Debug: 67 2 hla_transport.c:191 hl_transport_select(): hl_transport_select
Debug: 68 2 command.c:364 register_command_handler(): registering 'ocd_hla'...
Debug: 69 2 command.c:364 register_command_handler(): registering 'ocd_jtag'...
Debug: 70 2 command.c:364 register_command_handler(): registering 'ocd_jtag'...
Debug: 71 2 command.c:364 register_command_handler(): registering 'ocd_jtag'...
Debug: 72 2 command.c:364 register_command_handler(): registering 'ocd_jtag'...
Debug: 73 2 command.c:364 register_command_handler(): registering 'ocd_jtag'...
Debug: 74 2 command.c:364 register_command_handler(): registering 'ocd_jtag'...
Debug: 75 2 command.c:364 register_command_handler(): registering 'ocd_jtag'...
Debug: 76 2 command.c:364 register_command_handler(): registering 'ocd_jtag'...
Debug: 77 2 command.c:364 register_command_handler(): registering 'ocd_jtag'...
Debug: 78 2 command.c:364 register_command_handler(): registering 'ocd_jtag_ntrst_delay'...
Debug: 79 2 configuration.c:82 find_file(): found /home/amalki/prjs/microROS/soft/apps/decoder/ext/openocd/tcl/mem_helper.tcl
Debug: 80 2 command.c:143 script_debug(): command - ocd_command ocd_command type ocd_add_usage_text mrw address
Debug: 81 2 command.c:143 script_debug(): command - add_usage_text ocd_add_usage_text mrw address
Debug: 83 2 command.c:1098 help_add_command(): added 'mrw' help text
Debug: 84 2 command.c:143 script_debug(): command - ocd_command ocd_command type ocd_add_help_text mrw Returns value of word in memory.
Debug: 85 2 command.c:143 script_debug(): command - add_help_text ocd_add_help_text mrw Returns value of word in memory.
Debug: 87 2 command.c:1111 help_add_command(): added 'mrw' help text
Debug: 88 2 command.c:143 script_debug(): command - ocd_command ocd_command type ocd_add_usage_text mrb address
Debug: 89 2 command.c:143 script_debug(): command - add_usage_text ocd_add_usage_text mrb address
Debug: 91 2 command.c:1098 help_add_command(): added 'mrb' help text
Debug: 92 2 command.c:143 script_debug(): command - ocd_command ocd_command type ocd_add_help_text mrb Returns value of byte in memory.
Debug: 93 2 command.c:143 script_debug(): command - add_help_text ocd_add_help_text mrb Returns value of byte in memory.
Debug: 95 2 command.c:1111 help_add_command(): added 'mrb' help text
Debug: 96 2 command.c:143 script_debug(): command - ocd_command ocd_command type ocd_add_usage_text mmw address setbits clearbits
Debug: 97 2 command.c:143 script_debug(): command - add_usage_text ocd_add_usage_text mmw address setbits clearbits
Debug: 99 2 command.c:1098 help_add_command(): added 'mmw' help text
Debug: 100 2 command.c:143 script_debug(): command - ocd_command ocd_command type ocd_add_help_text mmw Modify word in memory. new_val = (old_val & ~clearbits) | setbits;
Debug: 101 2 command.c:143 script_debug(): command - add_help_text ocd_add_help_text mmw Modify word in memory. new_val = (old_val & ~clearbits) | setbits;
Debug: 103 2 command.c:1111 help_add_command(): added 'mmw' help text
Debug: 104 2 command.c:143 script_debug(): command - ocd_command ocd_command type ocd_transport select
Debug: 105 2 command.c:143 script_debug(): command - ocd_transport ocd_transport select
Debug: 106 2 command.c:143 script_debug(): command - ocd_command ocd_command type ocd_transport select
Debug: 107 2 command.c:143 script_debug(): command - ocd_transport ocd_transport select
Debug: 108 2 command.c:143 script_debug(): command - ocd_command ocd_command type ocd_transport select
Debug: 109 2 command.c:143 script_debug(): command - ocd_transport ocd_transport select
Debug: 110 2 command.c:143 script_debug(): command - ocd_command ocd_command type ocd_transport select
Debug: 111 2 command.c:143 script_debug(): command - ocd_transport ocd_transport select
Debug: 112 2 command.c:143 script_debug(): command - ocd_command ocd_command type ocd_hla newtap stm32f4x cpu -irlen 4 -ircapture 0x1 -irmask 0xf -expected-id 0x2ba01477
Debug: 113 2 command.c:143 script_debug(): command - ocd_hla ocd_hla newtap stm32f4x cpu -irlen 4 -ircapture 0x1 -irmask 0xf -expected-id 0x2ba01477
Debug: 114 2 hla_tcl.c:116 jim_hl_newtap_cmd(): Creating New Tap, Chip: stm32f4x, Tap: cpu, Dotted: stm32f4x.cpu, 8 params
Debug: 115 2 hla_tcl.c:126 jim_hl_newtap_cmd(): Processing option: -irlen
Debug: 116 2 hla_tcl.c:126 jim_hl_newtap_cmd(): Processing option: -ircapture
Debug: 117 2 hla_tcl.c:126 jim_hl_newtap_cmd(): Processing option: -irmask
Debug: 118 2 hla_tcl.c:126 jim_hl_newtap_cmd(): Processing option: -expected-id
Debug: 119 2 core.c:1304 jtag_tap_init(): Created Tap: stm32f4x.cpu @ abs position 0, irlen 0, capture: 0x0 mask: 0x0
Debug: 120 2 command.c:143 script_debug(): command - ocd_command ocd_command type ocd_transport select
Debug: 121 2 command.c:143 script_debug(): command - ocd_transport ocd_transport select
Debug: 122 2 command.c:143 script_debug(): command - ocd_command ocd_command type ocd_target create stm32f4x.cpu cortex_m -endian little -chain-position stm32f4x.cpu
Debug: 123 2 command.c:143 script_debug(): command - ocd_target ocd_target create stm32f4x.cpu cortex_m -endian little -chain-position stm32f4x.cpu
Info : 124 2 target.c:5340 target_create(): The selected transport took over low-level target control. The results might differ compared to plain JTAG/SWD
Debug: 125 2 target.c:1899 target_free_all_working_areas_restore(): freeing all working areas
Debug: 126 2 command.c:364 register_command_handler(): registering 'ocd_arm'...
Debug: 127 2 command.c:364 register_command_handler(): registering 'ocd_arm'...
Debug: 128 2 command.c:364 register_command_handler(): registering 'ocd_arm'...
Debug: 129 2 command.c:364 register_command_handler(): registering 'ocd_arm'...
Debug: 130 2 command.c:364 register_command_handler(): registering 'ocd_arm'...
Debug: 131 2 command.c:364 register_command_handler(): registering 'ocd_arm'...
Debug: 132 2 command.c:364 register_command_handler(): registering 'ocd_arm'...
Debug: 133 2 command.c:364 register_command_handler(): registering 'ocd_tpiu'...
Debug: 134 2 command.c:364 register_command_handler(): registering 'ocd_itm'...
Debug: 135 2 command.c:364 register_command_handler(): registering 'ocd_itm'...
Debug: 136 2 hla_target.c:351 adapter_target_create(): adapter_target_create
Debug: 137 2 hla_target.c:322 adapter_init_arch_info(): adapter_init_arch_info
Debug: 138 2 command.c:364 register_command_handler(): registering 'ocd_stm32f4x.cpu'...
Debug: 139 2 command.c:364 register_command_handler(): registering 'ocd_stm32f4x.cpu'...
Debug: 140 2 command.c:364 register_command_handler(): registering 'ocd_stm32f4x.cpu'...
Debug: 141 2 command.c:364 register_command_handler(): registering 'ocd_stm32f4x.cpu'...
Debug: 142 2 command.c:364 register_command_handler(): registering 'ocd_stm32f4x.cpu'...
Debug: 143 2 command.c:364 register_command_handler(): registering 'ocd_stm32f4x.cpu'...
Debug: 144 2 command.c:364 register_command_handler(): registering 'ocd_stm32f4x.cpu'...
Debug: 145 2 command.c:364 register_command_handler(): registering 'ocd_stm32f4x.cpu'...
Debug: 146 2 command.c:364 register_command_handler(): registering 'ocd_stm32f4x.cpu'...
Debug: 147 2 command.c:364 register_command_handler(): registering 'ocd_stm32f4x.cpu'...
Debug: 148 2 command.c:364 register_command_handler(): registering 'ocd_stm32f4x.cpu'...
Debug: 149 2 command.c:364 register_command_handler(): registering 'ocd_stm32f4x.cpu'...
Debug: 150 2 command.c:364 register_command_handler(): registering 'ocd_stm32f4x.cpu'...
Debug: 151 2 command.c:364 register_command_handler(): registering 'ocd_stm32f4x.cpu'...
Debug: 152 2 command.c:364 register_command_handler(): registering 'ocd_stm32f4x.cpu'...
Debug: 153 2 command.c:364 register_command_handler(): registering 'ocd_stm32f4x.cpu'...
Debug: 154 2 command.c:364 register_command_handler(): registering 'ocd_stm32f4x.cpu'...
Debug: 155 2 command.c:364 register_command_handler(): registering 'ocd_stm32f4x.cpu'...
Debug: 156 2 command.c:364 register_command_handler(): registering 'ocd_stm32f4x.cpu'...
Debug: 157 2 command.c:364 register_command_handler(): registering 'ocd_stm32f4x.cpu'...
Debug: 158 2 command.c:364 register_command_handler(): registering 'ocd_stm32f4x.cpu'...
Debug: 159 2 command.c:364 register_command_handler(): registering 'ocd_stm32f4x.cpu'...
Debug: 160 2 command.c:364 register_command_handler(): registering 'ocd_stm32f4x.cpu'...
Debug: 161 2 command.c:364 register_command_handler(): registering 'ocd_stm32f4x.cpu'...
Debug: 162 2 command.c:364 register_command_handler(): registering 'ocd_stm32f4x.cpu'...
Debug: 163 2 command.c:364 register_command_handler(): registering 'ocd_stm32f4x.cpu'...
Debug: 164 2 command.c:364 register_command_handler(): registering 'ocd_stm32f4x.cpu'...
Debug: 165 2 command.c:364 register_command_handler(): registering 'ocd_stm32f4x.cpu'...
Debug: 166 2 command.c:364 register_command_handler(): registering 'ocd_stm32f4x.cpu'...
Debug: 167 2 command.c:364 register_command_handler(): registering 'ocd_stm32f4x.cpu'...
Debug: 168 2 command.c:364 register_command_handler(): registering 'ocd_stm32f4x.cpu'...
Debug: 169 2 command.c:364 register_command_handler(): registering 'ocd_stm32f4x.cpu'...
Debug: 170 2 command.c:364 register_command_handler(): registering 'ocd_stm32f4x.cpu'...
Debug: 171 2 command.c:364 register_command_handler(): registering 'ocd_stm32f4x.cpu'...
Debug: 172 2 command.c:143 script_debug(): command - ocd_command ocd_command type ocd_stm32f4x.cpu configure -work-area-phys 0x20000000 -work-area-size 0x8000 -work-area-backup 0
Debug: 173 2 command.c:143 script_debug(): command - ocd_stm32f4x.cpu ocd_stm32f4x.cpu configure -work-area-phys 0x20000000 -work-area-size 0x8000 -work-area-backup 0
Debug: 174 2 target.c:1899 target_free_all_working_areas_restore(): freeing all working areas
Debug: 175 2 target.c:1899 target_free_all_working_areas_restore(): freeing all working areas
Debug: 176 2 target.c:1899 target_free_all_working_areas_restore(): freeing all working areas
Debug: 177 2 command.c:143 script_debug(): command - ocd_command ocd_command type ocd_flash bank stm32f4x.flash stm32f2x 0 0 0 0 stm32f4x.cpu
Debug: 178 2 command.c:143 script_debug(): command - ocd_flash ocd_flash bank stm32f4x.flash stm32f2x 0 0 0 0 stm32f4x.cpu
Debug: 180 2 command.c:364 register_command_handler(): registering 'ocd_stm32f2x'...
Debug: 181 2 command.c:364 register_command_handler(): registering 'ocd_stm32f2x'...
Debug: 182 2 command.c:364 register_command_handler(): registering 'ocd_stm32f2x'...
Debug: 183 2 command.c:364 register_command_handler(): registering 'ocd_stm32f2x'...
Debug: 184 2 command.c:364 register_command_handler(): registering 'ocd_stm32f2x'...
Debug: 185 2 tcl.c:1033 handle_flash_bank_command(): 'stm32f2x' driver usage field missing
Debug: 186 2 command.c:143 script_debug(): command - ocd_command ocd_command type ocd_adapter_khz 2000
Debug: 187 2 command.c:143 script_debug(): command - adapter_khz ocd_adapter_khz 2000
Debug: 189 2 core.c:1631 jtag_config_khz(): handle jtag khz
Debug: 190 2 core.c:1598 adapter_khz_to_speed(): convert khz to interface specific speed value
Debug: 191 2 core.c:1598 adapter_khz_to_speed(): convert khz to interface specific speed value
User : 192 2 command.c:544 command_print(): adapter speed: 2000 kHz
Debug: 193 3 command.c:143 script_debug(): command - ocd_command ocd_command type ocd_adapter_nsrst_delay 100
Debug: 194 3 command.c:143 script_debug(): command - adapter_nsrst_delay ocd_adapter_nsrst_delay 100
User : 196 3 command.c:544 command_print(): adapter_nsrst_delay: 100
Debug: 197 3 command.c:143 script_debug(): command - ocd_command ocd_command type ocd_transport select
Debug: 198 3 command.c:143 script_debug(): command - ocd_transport ocd_transport select
Debug: 199 3 command.c:143 script_debug(): command - ocd_command ocd_command type ocd_reset_config srst_nogate
Debug: 200 3 command.c:143 script_debug(): command - reset_config ocd_reset_config srst_nogate
User : 202 3 command.c:544 command_print(): none separate
Debug: 203 3 command.c:143 script_debug(): command - ocd_command ocd_command type ocd_transport select
Debug: 204 3 command.c:143 script_debug(): command - ocd_transport ocd_transport select
Debug: 205 3 command.c:143 script_debug(): command - ocd_command ocd_command type ocd_stm32f4x.cpu configure -event examine-end 
	# Enable debug during low power modes (uses more power)
	# DBGMCU_CR |= DBG_STANDBY | DBG_STOP | DBG_SLEEP
	mmw 0xE0042004 0x00000007 0

	# Stop watchdog counters during halt
	# DBGMCU_APB1_FZ |= DBG_IWDG_STOP | DBG_WWDG_STOP
	mmw 0xE0042008 0x00001800 0

Debug: 206 3 command.c:143 script_debug(): command - ocd_stm32f4x.cpu ocd_stm32f4x.cpu configure -event examine-end 
	# Enable debug during low power modes (uses more power)
	# DBGMCU_CR |= DBG_STANDBY | DBG_STOP | DBG_SLEEP
	mmw 0xE0042004 0x00000007 0

	# Stop watchdog counters during halt
	# DBGMCU_APB1_FZ |= DBG_IWDG_STOP | DBG_WWDG_STOP
	mmw 0xE0042008 0x00001800 0

Debug: 207 3 command.c:143 script_debug(): command - ocd_command ocd_command type ocd_stm32f4x.cpu configure -event trace-config 
	# Set TRACE_IOEN; TRACE_MODE is set to async; when using sync
	# change this value accordingly to configure trace pins
	# assignment
	mmw 0xE0042004 0x00000020 0

Debug: 208 3 command.c:143 script_debug(): command - ocd_stm32f4x.cpu ocd_stm32f4x.cpu configure -event trace-config 
	# Set TRACE_IOEN; TRACE_MODE is set to async; when using sync
	# change this value accordingly to configure trace pins
	# assignment
	mmw 0xE0042004 0x00000020 0

Debug: 209 3 command.c:143 script_debug(): command - ocd_command ocd_command type ocd_stm32f4x.cpu configure -event reset-init 
	# Configure PLL to boost clock to HSI x 4 (64 MHz)
	mww 0x40023804 0x08012008   ;# RCC_PLLCFGR 16 Mhz /8 (M) * 128 (N) /4(P)
	mww 0x40023C00 0x00000102   ;# FLASH_ACR = PRFTBE | 2(Latency)
	mmw 0x40023800 0x01000000 0 ;# RCC_CR |= PLLON
	sleep 10                    ;# Wait for PLL to lock
	mmw 0x40023808 0x00001000 0 ;# RCC_CFGR |= RCC_CFGR_PPRE1_DIV2
	mmw 0x40023808 0x00000002 0 ;# RCC_CFGR |= RCC_CFGR_SW_PLL

	# Boost JTAG frequency
	adapter_khz 8000

Debug: 210 3 command.c:143 script_debug(): command - ocd_stm32f4x.cpu ocd_stm32f4x.cpu configure -event reset-init 
	# Configure PLL to boost clock to HSI x 4 (64 MHz)
	mww 0x40023804 0x08012008   ;# RCC_PLLCFGR 16 Mhz /8 (M) * 128 (N) /4(P)
	mww 0x40023C00 0x00000102   ;# FLASH_ACR = PRFTBE | 2(Latency)
	mmw 0x40023800 0x01000000 0 ;# RCC_CR |= PLLON
	sleep 10                    ;# Wait for PLL to lock
	mmw 0x40023808 0x00001000 0 ;# RCC_CFGR |= RCC_CFGR_PPRE1_DIV2
	mmw 0x40023808 0x00000002 0 ;# RCC_CFGR |= RCC_CFGR_SW_PLL

	# Boost JTAG frequency
	adapter_khz 8000

Debug: 211 3 command.c:143 script_debug(): command - ocd_command ocd_command type ocd_stm32f4x.cpu configure -event reset-start 
	# Reduce speed since CPU speed will slow down to 16MHz with the reset
	adapter_khz 2000

Debug: 212 3 command.c:143 script_debug(): command - ocd_stm32f4x.cpu ocd_stm32f4x.cpu configure -event reset-start 
	# Reduce speed since CPU speed will slow down to 16MHz with the reset
	adapter_khz 2000

Debug: 213 3 command.c:143 script_debug(): command - ocd_command ocd_command type ocd_init
Debug: 214 3 command.c:143 script_debug(): command - init ocd_init
Debug: 216 3 command.c:143 script_debug(): command - ocd_command ocd_command type ocd_target init
Debug: 217 3 command.c:143 script_debug(): command - ocd_target ocd_target init
Debug: 219 3 command.c:143 script_debug(): command - ocd_command ocd_command type ocd_target names
Debug: 220 3 command.c:143 script_debug(): command - ocd_target ocd_target names
Debug: 221 3 command.c:143 script_debug(): command - ocd_command ocd_command type ocd_stm32f4x.cpu cget -event gdb-flash-erase-start
Debug: 222 3 command.c:143 script_debug(): command - ocd_stm32f4x.cpu ocd_stm32f4x.cpu cget -event gdb-flash-erase-start
Debug: 223 3 command.c:143 script_debug(): command - ocd_command ocd_command type ocd_stm32f4x.cpu configure -event gdb-flash-erase-start reset init
Debug: 224 3 command.c:143 script_debug(): command - ocd_stm32f4x.cpu ocd_stm32f4x.cpu configure -event gdb-flash-erase-start reset init
Debug: 225 3 command.c:143 script_debug(): command - ocd_command ocd_command type ocd_stm32f4x.cpu cget -event gdb-flash-write-end
Debug: 226 3 command.c:143 script_debug(): command - ocd_stm32f4x.cpu ocd_stm32f4x.cpu cget -event gdb-flash-write-end
Debug: 227 3 command.c:143 script_debug(): command - ocd_command ocd_command type ocd_stm32f4x.cpu configure -event gdb-flash-write-end reset halt
Debug: 228 3 command.c:143 script_debug(): command - ocd_stm32f4x.cpu ocd_stm32f4x.cpu configure -event gdb-flash-write-end reset halt
Debug: 229 3 target.c:1324 handle_target_init_command(): Initializing targets...
Debug: 230 3 hla_target.c:341 adapter_init_target(): adapter_init_target
Debug: 231 3 command.c:364 register_command_handler(): registering 'ocd_target_request'...
Debug: 232 3 command.c:364 register_command_handler(): registering 'ocd_trace'...
Debug: 233 3 command.c:364 register_command_handler(): registering 'ocd_trace'...
Debug: 234 3 command.c:364 register_command_handler(): registering 'ocd_fast_load_image'...
Debug: 235 3 command.c:364 register_command_handler(): registering 'ocd_fast_load'...
Debug: 236 3 command.c:364 register_command_handler(): registering 'ocd_profile'...
Debug: 237 3 command.c:364 register_command_handler(): registering 'ocd_virt2phys'...
Debug: 238 3 command.c:364 register_command_handler(): registering 'ocd_reg'...
Debug: 239 3 command.c:364 register_command_handler(): registering 'ocd_poll'...
Debug: 240 3 command.c:364 register_command_handler(): registering 'ocd_wait_halt'...
Debug: 241 3 command.c:364 register_command_handler(): registering 'ocd_halt'...
Debug: 242 3 command.c:364 register_command_handler(): registering 'ocd_resume'...
Debug: 243 3 command.c:364 register_command_handler(): registering 'ocd_reset'...
Debug: 244 3 command.c:364 register_command_handler(): registering 'ocd_soft_reset_halt'...
Debug: 245 3 command.c:364 register_command_handler(): registering 'ocd_step'...
Debug: 246 3 command.c:364 register_command_handler(): registering 'ocd_mdw'...
Debug: 247 3 command.c:364 register_command_handler(): registering 'ocd_mdh'...
Debug: 248 3 command.c:364 register_command_handler(): registering 'ocd_mdb'...
Debug: 249 3 command.c:364 register_command_handler(): registering 'ocd_mww'...
Debug: 250 3 command.c:364 register_command_handler(): registering 'ocd_mwh'...
Debug: 251 3 command.c:364 register_command_handler(): registering 'ocd_mwb'...
Debug: 252 3 command.c:364 register_command_handler(): registering 'ocd_bp'...
Debug: 253 3 command.c:364 register_command_handler(): registering 'ocd_rbp'...
Debug: 254 3 command.c:364 register_command_handler(): registering 'ocd_wp'...
Debug: 255 3 command.c:364 register_command_handler(): registering 'ocd_rwp'...
Debug: 256 3 command.c:364 register_command_handler(): registering 'ocd_load_image'...
Debug: 257 3 command.c:364 register_command_handler(): registering 'ocd_dump_image'...
Debug: 258 3 command.c:364 register_command_handler(): registering 'ocd_verify_image_checksum'...
Debug: 259 3 command.c:364 register_command_handler(): registering 'ocd_verify_image'...
Debug: 260 3 command.c:364 register_command_handler(): registering 'ocd_test_image'...
Debug: 261 3 command.c:364 register_command_handler(): registering 'ocd_reset_nag'...
Debug: 262 3 command.c:364 register_command_handler(): registering 'ocd_ps'...
Debug: 263 3 command.c:364 register_command_handler(): registering 'ocd_test_mem_access'...
Debug: 264 3 hla_interface.c:109 hl_interface_init(): hl_interface_init
Debug: 265 3 hla_layout.c:83 hl_layout_init(): hl_layout_init
Debug: 266 3 core.c:1598 adapter_khz_to_speed(): convert khz to interface specific speed value
Debug: 267 3 core.c:1601 adapter_khz_to_speed(): have interface set up
Info : 268 3 stlink_usb.c:1608 stlink_speed(): Unable to match requested speed 2000 kHz, using 1800 kHz
Debug: 269 3 core.c:1598 adapter_khz_to_speed(): convert khz to interface specific speed value
Debug: 270 3 core.c:1601 adapter_khz_to_speed(): have interface set up
Info : 271 3 stlink_usb.c:1608 stlink_speed(): Unable to match requested speed 2000 kHz, using 1800 kHz
Info : 272 3 core.c:1386 adapter_init(): clock speed 1800 kHz
Debug: 273 3 openocd.c:140 handle_init_command(): Debug Adapter init complete
Debug: 274 3 command.c:143 script_debug(): command - ocd_command ocd_command type ocd_transport init
Debug: 275 3 command.c:143 script_debug(): command - ocd_transport ocd_transport init
Debug: 277 3 transport.c:239 handle_transport_init(): handle_transport_init
Debug: 278 3 hla_transport.c:152 hl_transport_init(): hl_transport_init
Debug: 279 3 hla_transport.c:169 hl_transport_init(): current transport hla_swd
Debug: 280 3 hla_interface.c:42 hl_interface_open(): hl_interface_open
Debug: 281 3 hla_layout.c:40 hl_layout_open(): hl_layout_open
Debug: 282 3 stlink_usb.c:1642 stlink_usb_open(): stlink_usb_open
Debug: 283 3 stlink_usb.c:1659 stlink_usb_open(): transport: 1 vid: 0x0483 pid: 0x3748 serial: 
Info : 284 9 stlink_usb.c:563 stlink_usb_version(): STLINK v2 JTAG v29 API v2 SWIM v7 VID 0x0483 PID 0x3748
Info : 285 9 stlink_usb.c:1770 stlink_usb_open(): using stlink api v2
Debug: 286 9 stlink_usb.c:762 stlink_usb_init_mode(): MODE: 0x02
Info : 287 10 stlink_usb.c:595 stlink_usb_check_voltage(): Target voltage: 3.261297
Debug: 288 10 stlink_usb.c:817 stlink_usb_init_mode(): MODE: 0x01
Debug: 289 11 stlink_usb.c:843 stlink_usb_init_mode(): MODE: 0x02
Debug: 290 11 stlink_usb.c:1785 stlink_usb_open(): Supported clock speeds are:
Debug: 291 11 stlink_usb.c:1788 stlink_usb_open(): 4000 kHz
Debug: 292 11 stlink_usb.c:1788 stlink_usb_open(): 1800 kHz
Debug: 293 11 stlink_usb.c:1788 stlink_usb_open(): 1200 kHz
Debug: 294 11 stlink_usb.c:1788 stlink_usb_open(): 950 kHz
Debug: 295 11 stlink_usb.c:1788 stlink_usb_open(): 480 kHz
Debug: 296 11 stlink_usb.c:1788 stlink_usb_open(): 240 kHz
Debug: 297 11 stlink_usb.c:1788 stlink_usb_open(): 125 kHz
Debug: 298 11 stlink_usb.c:1788 stlink_usb_open(): 100 kHz
Debug: 299 11 stlink_usb.c:1788 stlink_usb_open(): 50 kHz
Debug: 300 11 stlink_usb.c:1788 stlink_usb_open(): 25 kHz
Debug: 301 11 stlink_usb.c:1788 stlink_usb_open(): 15 kHz
Debug: 302 11 stlink_usb.c:1788 stlink_usb_open(): 5 kHz
Debug: 303 11 stlink_usb.c:1808 stlink_usb_open(): Using TAR autoincrement: 4096
Debug: 304 11 hla_interface.c:127 hl_interface_execute_queue(): hl_interface_execute_queue: ignored
Debug: 305 11 core.c:729 jtag_add_reset(): SRST line released
Debug: 306 11 core.c:753 jtag_add_reset(): TRST line released
Debug: 307 11 core.c:327 jtag_call_event_callbacks(): jtag event: TAP reset
Debug: 308 11 hla_interface.c:67 hl_interface_init_target(): hl_interface_init_target
Debug: 309 11 stlink_usb.c:868 stlink_usb_idcode(): IDCODE: 0x2BA01477
Debug: 310 11 openocd.c:153 handle_init_command(): Examining targets...
Debug: 311 11 target.c:1517 target_call_event_callbacks(): target event 21 (examine-start)
Debug: 312 11 hla_target.c:750 adapter_read_memory(): adapter_read_memory 0xe000ed00 4 1
Debug: 313 12 target.c:2240 target_read_u32(): address: 0xe000ed00, value: 0x410fc241
Debug: 314 12 cortex_m.c:1947 cortex_m_examine(): Cortex-M4 r0p1 processor detected
Debug: 315 12 cortex_m.c:1955 cortex_m_examine(): cpuid: 0x410fc241
Debug: 316 12 hla_target.c:750 adapter_read_memory(): adapter_read_memory 0xe000ef40 4 1
Debug: 317 12 target.c:2240 target_read_u32(): address: 0xe000ef40, value: 0x10110021
Debug: 318 12 hla_target.c:750 adapter_read_memory(): adapter_read_memory 0xe000ef44 4 1
Debug: 319 13 target.c:2240 target_read_u32(): address: 0xe000ef44, value: 0x11000011
Debug: 320 13 cortex_m.c:1963 cortex_m_examine(): Cortex-M4 floating point feature FPv4_SP found
Debug: 321 13 target.c:2328 target_write_u32(): address: 0xe000edfc, value: 0x01000000
Debug: 322 13 hla_target.c:764 adapter_write_memory(): adapter_write_memory 0xe000edfc 4 1
Debug: 323 13 hla_target.c:750 adapter_read_memory(): adapter_read_memory 0xe0002000 4 1
Debug: 324 13 target.c:2240 target_read_u32(): address: 0xe0002000, value: 0x00000260
Debug: 325 13 target.c:2328 target_write_u32(): address: 0xe0002008, value: 0x00000000
Debug: 326 13 hla_target.c:764 adapter_write_memory(): adapter_write_memory 0xe0002008 4 1
Debug: 327 14 target.c:2328 target_write_u32(): address: 0xe000200c, value: 0x00000000
Debug: 328 14 hla_target.c:764 adapter_write_memory(): adapter_write_memory 0xe000200c 4 1
Debug: 329 14 target.c:2328 target_write_u32(): address: 0xe0002010, value: 0x00000000
Debug: 330 14 hla_target.c:764 adapter_write_memory(): adapter_write_memory 0xe0002010 4 1
Debug: 331 14 target.c:2328 target_write_u32(): address: 0xe0002014, value: 0x00000000
Debug: 332 14 hla_target.c:764 adapter_write_memory(): adapter_write_memory 0xe0002014 4 1
Debug: 333 15 target.c:2328 target_write_u32(): address: 0xe0002018, value: 0x00000000
Debug: 334 15 hla_target.c:764 adapter_write_memory(): adapter_write_memory 0xe0002018 4 1
Debug: 335 15 target.c:2328 target_write_u32(): address: 0xe000201c, value: 0x00000000
Debug: 336 15 hla_target.c:764 adapter_write_memory(): adapter_write_memory 0xe000201c 4 1
Debug: 337 15 target.c:2328 target_write_u32(): address: 0xe0002020, value: 0x00000000
Debug: 338 15 hla_target.c:764 adapter_write_memory(): adapter_write_memory 0xe0002020 4 1
Debug: 339 16 target.c:2328 target_write_u32(): address: 0xe0002024, value: 0x00000000
Debug: 340 16 hla_target.c:764 adapter_write_memory(): adapter_write_memory 0xe0002024 4 1
Debug: 341 16 cortex_m.c:2046 cortex_m_examine(): FPB fpcr 0x260, numcode 6, numlit 2
Debug: 342 16 hla_target.c:750 adapter_read_memory(): adapter_read_memory 0xe0001000 4 1
Debug: 343 16 target.c:2240 target_read_u32(): address: 0xe0001000, value: 0x40001e1f
Debug: 344 16 target.c:2328 target_write_u32(): address: 0xe0001028, value: 0x00000000
Debug: 345 16 hla_target.c:764 adapter_write_memory(): adapter_write_memory 0xe0001028 4 1
Debug: 346 17 target.c:2328 target_write_u32(): address: 0xe0001038, value: 0x00000000
Debug: 347 17 hla_target.c:764 adapter_write_memory(): adapter_write_memory 0xe0001038 4 1
Debug: 348 17 target.c:2328 target_write_u32(): address: 0xe0001048, value: 0x00000000
Debug: 349 17 hla_target.c:764 adapter_write_memory(): adapter_write_memory 0xe0001048 4 1
Debug: 350 17 target.c:2328 target_write_u32(): address: 0xe0001058, value: 0x00000000
Debug: 351 17 hla_target.c:764 adapter_write_memory(): adapter_write_memory 0xe0001058 4 1
Debug: 352 18 cortex_m.c:1857 cortex_m_dwt_setup(): DWT dwtcr 0x40001e1f, comp 4, watch/trigger
Info : 353 18 cortex_m.c:2056 cortex_m_examine(): stm32f4x.cpu: hardware has 6 breakpoints, 4 watchpoints
Debug: 354 18 target.c:1517 target_call_event_callbacks(): target event 22 (examine-end)
Debug: 355 18 target.c:4313 target_handle_event(): target: (0) stm32f4x.cpu (hla_target) event: 22 (examine-end) action: 
	# Enable debug during low power modes (uses more power)
	# DBGMCU_CR |= DBG_STANDBY | DBG_STOP | DBG_SLEEP
	mmw 0xE0042004 0x00000007 0

	# Stop watchdog counters during halt
	# DBGMCU_APB1_FZ |= DBG_IWDG_STOP | DBG_WWDG_STOP
	mmw 0xE0042008 0x00001800 0

Debug: 356 18 hla_target.c:750 adapter_read_memory(): adapter_read_memory 0xe0042004 4 1
Debug: 357 18 command.c:143 script_debug(): command - ocd_command ocd_command type ocd_mww 0xE0042004 39
Debug: 358 18 command.c:143 script_debug(): command - mww ocd_mww 0xE0042004 39
Debug: 360 18 hla_target.c:764 adapter_write_memory(): adapter_write_memory 0xe0042004 4 1
Debug: 361 19 hla_target.c:750 adapter_read_memory(): adapter_read_memory 0xe0042008 4 1
Debug: 362 19 command.c:143 script_debug(): command - ocd_command ocd_command type ocd_mww 0xE0042008 6144
Debug: 363 19 command.c:143 script_debug(): command - mww ocd_mww 0xE0042008 6144
Debug: 365 19 hla_target.c:764 adapter_write_memory(): adapter_write_memory 0xe0042008 4 1
Debug: 366 20 command.c:143 script_debug(): command - ocd_command ocd_command type ocd_flash init
Debug: 367 20 command.c:143 script_debug(): command - ocd_flash ocd_flash init
Debug: 369 20 tcl.c:1099 handle_flash_init_command(): Initializing flash devices...
Debug: 370 20 command.c:364 register_command_handler(): registering 'ocd_flash'...
Debug: 371 20 command.c:364 register_command_handler(): registering 'ocd_flash'...
Debug: 372 20 command.c:364 register_command_handler(): registering 'ocd_flash'...
Debug: 373 20 command.c:364 register_command_handler(): registering 'ocd_flash'...
Debug: 374 20 command.c:364 register_command_handler(): registering 'ocd_flash'...
Debug: 375 20 command.c:364 register_command_handler(): registering 'ocd_flash'...
Debug: 376 20 command.c:364 register_command_handler(): registering 'ocd_flash'...
Debug: 377 20 command.c:364 register_command_handler(): registering 'ocd_flash'...
Debug: 378 20 command.c:364 register_command_handler(): registering 'ocd_flash'...
Debug: 379 20 command.c:364 register_command_handler(): registering 'ocd_flash'...
Debug: 380 20 command.c:364 register_command_handler(): registering 'ocd_flash'...
Debug: 381 20 command.c:364 register_command_handler(): registering 'ocd_flash'...
Debug: 382 20 command.c:364 register_command_handler(): registering 'ocd_flash'...
Debug: 383 20 command.c:364 register_command_handler(): registering 'ocd_flash'...
Debug: 384 20 command.c:143 script_debug(): command - ocd_command ocd_command type ocd_mflash init
Debug: 385 20 command.c:143 script_debug(): command - ocd_mflash ocd_mflash init
Debug: 387 20 mflash.c:1377 handle_mflash_init_command(): Initializing mflash devices...
Debug: 388 20 command.c:143 script_debug(): command - ocd_command ocd_command type ocd_nand init
Debug: 389 20 command.c:143 script_debug(): command - ocd_nand ocd_nand init
Debug: 391 21 tcl.c:497 handle_nand_init_command(): Initializing NAND devices...
Debug: 392 21 command.c:143 script_debug(): command - ocd_command ocd_command type ocd_pld init
Debug: 393 21 command.c:143 script_debug(): command - ocd_pld ocd_pld init
Debug: 395 21 pld.c:205 handle_pld_init_command(): Initializing PLDs...
Debug: 396 21 command.c:143 script_debug(): command - ocd_command ocd_command type ocd_halt
Debug: 397 21 command.c:143 script_debug(): command - halt ocd_halt
Debug: 399 21 target.c:2820 handle_halt_command(): -
Debug: 400 21 hla_target.c:566 adapter_halt(): adapter_halt
Debug: 401 22 hla_target.c:750 adapter_read_memory(): adapter_read_memory 0xe000edf8 4 1
Debug: 402 22 target.c:2240 target_read_u32(): address: 0xe000edf8, value: 0x00000000
Debug: 403 22 hla_target.c:58 adapter_load_core_reg_u32(): adapter_load_core_reg_u32
Debug: 404 23 hla_target.c:73 adapter_load_core_reg_u32(): load from core reg 0  value 0x0
Debug: 405 23 hla_target.c:58 adapter_load_core_reg_u32(): adapter_load_core_reg_u32
Debug: 406 23 hla_target.c:73 adapter_load_core_reg_u32(): load from core reg 1  value 0x20000748
Debug: 407 23 hla_target.c:58 adapter_load_core_reg_u32(): adapter_load_core_reg_u32
Debug: 408 23 hla_target.c:73 adapter_load_core_reg_u32(): load from core reg 2  value 0x10001d70
Debug: 409 23 hla_target.c:58 adapter_load_core_reg_u32(): adapter_load_core_reg_u32
Debug: 410 23 hla_target.c:73 adapter_load_core_reg_u32(): load from core reg 3  value 0x14
Debug: 411 23 hla_target.c:58 adapter_load_core_reg_u32(): adapter_load_core_reg_u32
Debug: 412 24 hla_target.c:73 adapter_load_core_reg_u32(): load from core reg 4  value 0x200006c8
Debug: 413 24 hla_target.c:58 adapter_load_core_reg_u32(): adapter_load_core_reg_u32
Debug: 414 24 hla_target.c:73 adapter_load_core_reg_u32(): load from core reg 5  value 0x20008292
Debug: 415 24 hla_target.c:58 adapter_load_core_reg_u32(): adapter_load_core_reg_u32
Debug: 416 24 hla_target.c:73 adapter_load_core_reg_u32(): load from core reg 6  value 0x2000081c
Debug: 417 24 hla_target.c:58 adapter_load_core_reg_u32(): adapter_load_core_reg_u32
Debug: 418 25 hla_target.c:73 adapter_load_core_reg_u32(): load from core reg 7  value 0x0
Debug: 419 25 hla_target.c:58 adapter_load_core_reg_u32(): adapter_load_core_reg_u32
Debug: 420 25 hla_target.c:73 adapter_load_core_reg_u32(): load from core reg 8  value 0x3
Debug: 421 25 hla_target.c:58 adapter_load_core_reg_u32(): adapter_load_core_reg_u32
Debug: 422 25 hla_target.c:73 adapter_load_core_reg_u32(): load from core reg 9  value 0x0
Debug: 423 25 hla_target.c:58 adapter_load_core_reg_u32(): adapter_load_core_reg_u32
Debug: 424 26 hla_target.c:73 adapter_load_core_reg_u32(): load from core reg 10  value 0x0
Debug: 425 26 hla_target.c:58 adapter_load_core_reg_u32(): adapter_load_core_reg_u32
Debug: 426 26 hla_target.c:73 adapter_load_core_reg_u32(): load from core reg 11  value 0x0
Debug: 427 26 hla_target.c:58 adapter_load_core_reg_u32(): adapter_load_core_reg_u32
Debug: 428 26 hla_target.c:73 adapter_load_core_reg_u32(): load from core reg 12  value 0x64
Debug: 429 26 hla_target.c:58 adapter_load_core_reg_u32(): adapter_load_core_reg_u32
Debug: 430 27 hla_target.c:73 adapter_load_core_reg_u32(): load from core reg 13  value 0x200095cc
Debug: 431 27 hla_target.c:58 adapter_load_core_reg_u32(): adapter_load_core_reg_u32
Debug: 432 27 hla_target.c:73 adapter_load_core_reg_u32(): load from core reg 14  value 0x8001125
Debug: 433 27 hla_target.c:58 adapter_load_core_reg_u32(): adapter_load_core_reg_u32
Debug: 434 27 hla_target.c:73 adapter_load_core_reg_u32(): load from core reg 15  value 0x8001124
Debug: 435 27 hla_target.c:58 adapter_load_core_reg_u32(): adapter_load_core_reg_u32
Debug: 436 28 hla_target.c:73 adapter_load_core_reg_u32(): load from core reg 16  value 0x61000000
Debug: 437 28 hla_target.c:58 adapter_load_core_reg_u32(): adapter_load_core_reg_u32
Debug: 438 28 hla_target.c:73 adapter_load_core_reg_u32(): load from core reg 17  value 0x200095cc
Debug: 439 28 hla_target.c:58 adapter_load_core_reg_u32(): adapter_load_core_reg_u32
Debug: 440 28 hla_target.c:73 adapter_load_core_reg_u32(): load from core reg 18  value 0x0
Debug: 441 28 hla_target.c:58 adapter_load_core_reg_u32(): adapter_load_core_reg_u32
Debug: 442 29 hla_target.c:130 adapter_load_core_reg_u32(): load from special reg 19 value 0x0
Debug: 443 29 hla_target.c:58 adapter_load_core_reg_u32(): adapter_load_core_reg_u32
Debug: 444 29 hla_target.c:130 adapter_load_core_reg_u32(): load from special reg 20 value 0xf0
Debug: 445 29 hla_target.c:58 adapter_load_core_reg_u32(): adapter_load_core_reg_u32
Debug: 446 29 hla_target.c:130 adapter_load_core_reg_u32(): load from special reg 21 value 0x0
Debug: 447 29 hla_target.c:58 adapter_load_core_reg_u32(): adapter_load_core_reg_u32
Debug: 448 30 hla_target.c:130 adapter_load_core_reg_u32(): load from special reg 22 value 0x0
Debug: 449 30 hla_target.c:58 adapter_load_core_reg_u32(): adapter_load_core_reg_u32
Debug: 450 30 target.c:2328 target_write_u32(): address: 0xe000edf4, value: 0x00000040
Debug: 451 30 hla_target.c:764 adapter_write_memory(): adapter_write_memory 0xe000edf4 4 1
Debug: 452 30 hla_target.c:750 adapter_read_memory(): adapter_read_memory 0xe000edf8 4 1
Debug: 453 30 target.c:2240 target_read_u32(): address: 0xe000edf8, value: 0x00000000
Debug: 454 30 hla_target.c:96 adapter_load_core_reg_u32(): load from FPU reg S0  value 0x0
Debug: 455 30 hla_target.c:58 adapter_load_core_reg_u32(): adapter_load_core_reg_u32
Debug: 456 30 target.c:2328 target_write_u32(): address: 0xe000edf4, value: 0x00000041
Debug: 457 30 hla_target.c:764 adapter_write_memory(): adapter_write_memory 0xe000edf4 4 1
Debug: 458 31 hla_target.c:750 adapter_read_memory(): adapter_read_memory 0xe000edf8 4 1
Debug: 459 31 target.c:2240 target_read_u32(): address: 0xe000edf8, value: 0x00000000
Debug: 460 31 hla_target.c:96 adapter_load_core_reg_u32(): load from FPU reg S1  value 0x0
Debug: 461 31 hla_target.c:58 adapter_load_core_reg_u32(): adapter_load_core_reg_u32
Debug: 462 31 target.c:2328 target_write_u32(): address: 0xe000edf4, value: 0x00000042
Debug: 463 31 hla_target.c:764 adapter_write_memory(): adapter_write_memory 0xe000edf4 4 1
Debug: 464 32 hla_target.c:750 adapter_read_memory(): adapter_read_memory 0xe000edf8 4 1
Debug: 465 32 target.c:2240 target_read_u32(): address: 0xe000edf8, value: 0x00000000
Debug: 466 32 hla_target.c:96 adapter_load_core_reg_u32(): load from FPU reg S2  value 0x0
Debug: 467 32 hla_target.c:58 adapter_load_core_reg_u32(): adapter_load_core_reg_u32
Debug: 468 32 target.c:2328 target_write_u32(): address: 0xe000edf4, value: 0x00000043
Debug: 469 32 hla_target.c:764 adapter_write_memory(): adapter_write_memory 0xe000edf4 4 1
Debug: 470 32 hla_target.c:750 adapter_read_memory(): adapter_read_memory 0xe000edf8 4 1
Debug: 471 33 target.c:2240 target_read_u32(): address: 0xe000edf8, value: 0x00000000
Debug: 472 33 hla_target.c:96 adapter_load_core_reg_u32(): load from FPU reg S3  value 0x0
Debug: 473 33 hla_target.c:58 adapter_load_core_reg_u32(): adapter_load_core_reg_u32
Debug: 474 33 target.c:2328 target_write_u32(): address: 0xe000edf4, value: 0x00000044
Debug: 475 33 hla_target.c:764 adapter_write_memory(): adapter_write_memory 0xe000edf4 4 1
Debug: 476 33 hla_target.c:750 adapter_read_memory(): adapter_read_memory 0xe000edf8 4 1
Debug: 477 33 target.c:2240 target_read_u32(): address: 0xe000edf8, value: 0x00000000
Debug: 478 33 hla_target.c:96 adapter_load_core_reg_u32(): load from FPU reg S4  value 0x0
Debug: 479 33 hla_target.c:58 adapter_load_core_reg_u32(): adapter_load_core_reg_u32
Debug: 480 33 target.c:2328 target_write_u32(): address: 0xe000edf4, value: 0x00000045
Debug: 481 33 hla_target.c:764 adapter_write_memory(): adapter_write_memory 0xe000edf4 4 1
Debug: 482 34 hla_target.c:750 adapter_read_memory(): adapter_read_memory 0xe000edf8 4 1
Debug: 483 34 target.c:2240 target_read_u32(): address: 0xe000edf8, value: 0x00000000
Debug: 484 34 hla_target.c:96 adapter_load_core_reg_u32(): load from FPU reg S5  value 0x0
Debug: 485 34 hla_target.c:58 adapter_load_core_reg_u32(): adapter_load_core_reg_u32
Debug: 486 34 target.c:2328 target_write_u32(): address: 0xe000edf4, value: 0x00000046
Debug: 487 34 hla_target.c:764 adapter_write_memory(): adapter_write_memory 0xe000edf4 4 1
Debug: 488 34 hla_target.c:750 adapter_read_memory(): adapter_read_memory 0xe000edf8 4 1
Debug: 489 35 target.c:2240 target_read_u32(): address: 0xe000edf8, value: 0x00000000
Debug: 490 35 hla_target.c:96 adapter_load_core_reg_u32(): load from FPU reg S6  value 0x0
Debug: 491 35 hla_target.c:58 adapter_load_core_reg_u32(): adapter_load_core_reg_u32
Debug: 492 35 target.c:2328 target_write_u32(): address: 0xe000edf4, value: 0x00000047
Debug: 493 35 hla_target.c:764 adapter_write_memory(): adapter_write_memory 0xe000edf4 4 1
Debug: 494 35 hla_target.c:750 adapter_read_memory(): adapter_read_memory 0xe000edf8 4 1
Debug: 495 35 target.c:2240 target_read_u32(): address: 0xe000edf8, value: 0x00000000
Debug: 496 36 hla_target.c:96 adapter_load_core_reg_u32(): load from FPU reg S7  value 0x0
Debug: 497 36 hla_target.c:58 adapter_load_core_reg_u32(): adapter_load_core_reg_u32
Debug: 498 36 target.c:2328 target_write_u32(): address: 0xe000edf4, value: 0x00000048
Debug: 499 36 hla_target.c:764 adapter_write_memory(): adapter_write_memory 0xe000edf4 4 1
Debug: 500 36 hla_target.c:750 adapter_read_memory(): adapter_read_memory 0xe000edf8 4 1
Debug: 501 36 target.c:2240 target_read_u32(): address: 0xe000edf8, value: 0x00000000
Debug: 502 36 hla_target.c:96 adapter_load_core_reg_u32(): load from FPU reg S8  value 0x0
Debug: 503 36 hla_target.c:58 adapter_load_core_reg_u32(): adapter_load_core_reg_u32
Debug: 504 36 target.c:2328 target_write_u32(): address: 0xe000edf4, value: 0x00000049
Debug: 505 36 hla_target.c:764 adapter_write_memory(): adapter_write_memory 0xe000edf4 4 1
debg|pea.c:91->decoder_init_config(): initializing config...
debg|pea.c:102->decoder_init_config(): config initialized
debg|pea.c:235->decoder_init_swd_ctrl(): swd ctrl initializing.
debg|pea.c:247->decoder_init_swd_ctrl(): swd ctrl initialized.
debg|pea.c:111->decoder_init_uart(): initializing uart...
debg|processing.c:139->processing_init(): Initializing object 0x7ffd69fd2130
debg|pea.c:120->decoder_init_uart(): 	-device used: /dev/ttyUSB0
debg|pea.c:132->decoder_init_uart(): 	-baudrate used: 115200
debg|uart.c:127->uart_set_baudrate(): Setting baudrate 115200 
debg|pea.c:138->decoder_init_uart(): uart initialized
debg|pea.c:154->decoder_init_decoder_swo(): initializing decoder swo...
debg|processing.c:139->processing_init(): Initializing object 0x7ffd69fd1f30
debg|pea.c:161->decoder_init_decoder_swo(): decoder swo initialized...
debg|pea.c:143->decoder_init_form_cjson(): initializing cjson form...
debg|processing.c:139->processing_init(): Initializing object 0x7ffd69fd1e90
debg|pea.c:149->decoder_init_form_cjson(): cjson form initialized...
debg|processing.c:139->processing_init(): Initializing object 0x7ffd69fd21f0
debg|pea.c:210->decoder_init_file_json(): initializing file sink json...
debg|processing.c:139->processing_init(): Initializing object 0x7ffd69fd1fd0
debg|pea.c:229->decoder_init_file_json(): file sink initialized.
debg|pea.c:181->decoder_init_file_perf(): initializing file sink perf...
debg|processing.c:139->processing_init(): Initializing object 0x7ffd69fd2080
debg|pea.c:200->decoder_init_file_perf(): file sink initialized.
debg|pipeline.c:168->pipeline_init(): Pipeline initialized
debg|pea.c:342->main(): Attaching elements
debg|decoder_swo.c:66->default_packet_handler(): Message 0, LIBSWO_PACKET_TYPE_OF 
debg|decoder_swo.c:66->default_packet_handler(): Message 0, LIBSWO_PACKET_TYPE_DWT_PC_SAMPLE 
debg|decoder_swo.c:66->default_packet_handler(): Message 0, LIBSWO_PACKET_TYPE_OF 
debg|decoder_swo.c:66->default_packet_handler(): Message 0, LIBSWO_PACKET_TYPE_DWT_PC_SAMPLE 
debg|decoder_swo.c:66->default_packet_handler(): Message 0, LIBSWO_PACKET_TYPE_OF 
debg|decoder_swo.c:66->default_packet_handler(): Message 0, LIBSWO_PACKET_TYPE_DWT_PC_SAMPLE 
debg|decoder_swo.c:66->default_packet_handler(): Message 0, LIBSWO_PACKET_TYPE_OF 
debg|decoder_swo.c:66->default_packet_handler(): Message 0, LIBSWO_PACKET_TYPE_DWT_PC_SAMPLE 
debg|decoder_swo.c:66->default_packet_handler(): Message 0, LIBSWO_PACKET_TYPE_OF 
debg|decoder_swo.c:66->default_packet_handler(): Message 0, LIBSWO_PACKET_TYPE_DWT_PC_SAMPLE 
debg|decoder_swo.c:66->default_packet_handler(): Message 0, LIBSWO_PACKET_TYPE_OF 
debg|decoder_swo.c:66->default_packet_handler(): Message 0, LIBSWO_PACKET_TYPE_DWT_PC_SAMPLE 
debg|decoder_swo.c:66->default_packet_handler(): Message 0, LIBSWO_PACKET_TYPE_OF 
debg|decoder_swo.c:66->default_packet_handler(): Message 0, LIBSWO_PACKET_TYPE_DWT_PC_SAMPLE 
debg|decoder_swo.c:66->default_packet_handler(): Message 0, LIBSWO_PACKET_TYPE_OF 
debg|decoder_swo.c:66->default_packet_handler(): Message 0, LIBSWO_PACKET_TYPE_DWT_PC_SAMPLE 
debg|decoder_swo.c:66->default_packet_handler(): Message 0, LIBSWO_PACKET_TYPE_OF 
debg|decoder_swo.c:66->default_packet_handler(): Message 0, LIBSWO_PACKET_TYPE_DWT_PC_SAMPLE 
debg|decoder_swo.c:66->default_packet_handler(): Message 0, LIBSWO_PACKET_TYPE_OF 
debg|decoder_swo.c:66->default_packet_handler(): Message 0, LIBSWO_PACKET_TYPE_DWT_PC_SAMPLE 
debg|decoder_swo.c:66->default_packet_handler(): Message 0, LIBSWO_PACKET_TYPE_OF 
debg|decoder_swo.c:66->default_packet_handler(): Message 0, LIBSWO_PACKET_TYPE_DWT_PC_SAMPLE 
debg|decoder_swo.c:66->default_packet_handler(): Message 0, LIBSWO_PACKET_TYPE_OF 
debg|decoder_swo.c:66->default_packet_handler(): Message 0, LIBSWO_PACKET_TYPE_DWT_PC_SAMPLE 
debg|decoder_swo.c:66->default_packet_handler(): Message 0, LIBSWO_PACKET_TYPE_OF 
debg|decoder_swo.c:66->default_packet_handler(): Message 0, LIBSWO_PACKET_TYPE_DWT_PC_SAMPLE 
debg|decoder_swo.c:66->default_packet_handler(): Message 0, LIBSWO_PACKET_TYPE_OF 
debg|decoder_swo.c:66->default_packet_handlwarn|processing.c:49->processing_data_out_default(): No callback defined yet
Debug: 506 37 hla_target.c:750 adapter_read_memory(): adapter_read_memory 0xe000edf8 4 1
Debug: 507 37 target.c:2240 target_read_u32(): address: 0xe000edf8, value: 0x00000000
Debug: 508 37 hla_target.c:96 adapter_load_core_reg_u32(): load from FPU reg S9  value 0x0
Debug: 509 37 hla_target.c:58 adapter_load_core_reg_u32(): adapter_load_core_reg_u32
Debug: 510 37 target.c:2328 target_write_u32(): address: 0xe000edf4, value: 0x0000004a
Debug: 511 37 hla_target.c:764 adapter_write_memory(): adapter_write_memory 0xe000edf4 4 1
Debug: 512 37 hla_target.c:750 adapter_read_memory(): adapter_read_memory 0xe000edf8 4 1
Debug: 513 38 target.c:2240 target_read_u32(): address: 0xe000edf8, value: 0x00000000
Debug: 514 38 hla_target.c:96 adapter_load_core_reg_u32(): load from FPU reg S10  value 0x0
Debug: 515 38 hla_target.c:58 adapter_load_core_reg_u32(): adapter_load_core_reg_u32
Debug: 516 38 target.c:2328 target_write_u32(): address: 0xe000edf4, value: 0x0000004b
Debug: 517 38 hla_target.c:764 adapter_write_memory(): adapter_write_memory 0xe000edf4 4 1
Debug: 518 38 hla_target.c:750 adapter_read_memory(): adapter_read_memory 0xe000edf8 4 1
Debug: 519 38 target.c:2240 target_read_u32(): address: 0xe000edf8, value: 0x00000000
Debug: 520 38 hla_target.c:96 adapter_load_core_reg_u32(): load from FPU reg S11  value 0x0
Debug: 521 38 hla_target.c:58 adapter_load_core_reg_u32(): adapter_load_core_reg_u32
Debug: 522 38 target.c:2328 target_write_u32(): address: 0xe000edf4, value: 0x0000004c
Debug: 523 38 hla_target.c:764 adapter_write_memory(): adapter_write_memory 0xe000edf4 4 1
Debug: 524 39 hla_target.c:750 adapter_read_memory(): adapter_read_memory 0xe000edf8 4 1
Debug: 525 39 target.c:2240 target_read_u32(): address: 0xe000edf8, value: 0x00000000
Debug: 526 39 hla_target.c:96 adapter_load_core_reg_u32(): load from FPU reg S12  value 0x0
Debug: 527 39 hla_target.c:58 adapter_load_core_reg_u32(): adapter_load_core_reg_u32
Debug: 528 39 target.c:2328 target_write_u32(): address: 0xe000edf4, value: 0x0000004d
Debug: 529 39 hla_target.c:764 adapter_write_memory(): adapter_write_memory 0xe000edf4 4 1
Debug: 530 39 hla_target.c:750 adapter_read_memory(): adapter_read_memory 0xe000edf8 4 1
Debug: 531 40 target.c:2240 target_read_u32(): address: 0xe000edf8, value: 0x00000000
Debug: 532 40 hla_target.c:96 adapter_load_core_reg_u32(): load from FPU reg S13  value 0x0
Debug: 533 40 hla_target.c:58 adapter_load_core_reg_u32(): adapter_load_core_reg_u32
Debug: 534 40 target.c:2328 target_write_u32(): address: 0xe000edf4, value: 0x0000004e
Debug: 535 40 hla_target.c:764 adapter_write_memory(): adapter_write_memory 0xe000edf4 4 1
Debug: 536 40 hla_target.c:750 adapter_read_memory(): adapter_read_memory 0xe000edf8 4 1
Debug: 537 41 target.c:2240 target_read_u32(): address: 0xe000edf8, value: 0x00000000
Debug: 538 41 hla_target.c:96 adapter_load_core_reg_u32(): load from FPU reg S14  value 0x0
Debug: 539 41 hla_target.c:58 adapter_load_core_reg_u32(): adapter_load_core_reg_u32
Debug: 540 41 target.c:2328 target_write_u32(): address: 0xe000edf4, value: 0x0000004f
Debug: 541 41 hla_target.c:764 adapter_write_memory(): adapter_write_memory 0xe000edf4 4 1
Debug: 542 41 hla_target.c:750 adapter_read_memory(): adapter_read_memory 0xe000edf8 4 1
Debug: 543 41 target.c:2240 target_read_u32(): address: 0xe000edf8, value: 0x00000000
Debug: 544 41 hla_target.c:96 adapter_load_core_reg_u32(): load from FPU reg S15  value 0x0
Debug: 545 41 hla_target.c:58 adapter_load_core_reg_u32(): adapter_load_core_reg_u32
Debug: 546 41 target.c:2328 target_write_u32(): address: 0xe000edf4, value: 0x00000050
Debug: 547 41 hla_target.c:764 adapter_write_memory(): adapter_write_memory 0xe000edf4 4 1
Debug: 548 42 hla_target.c:750 adapter_read_memory(): adapter_read_memory 0xe000edf8 4 1
Debug: 549 42 target.c:2240 target_read_u32(): address: 0xe000edf8, value: 0x00000000
Debug: 550 42 hla_target.c:96 adapter_load_core_reg_u32(): load from FPU reg S16  value 0x0
Debug: 551 42 hla_target.c:58 adapter_load_core_reg_u32(): adapter_load_core_reg_u32
Debug: 552 42 target.c:2328 target_write_u32(): address: 0xe000edf4, value: 0x00000051
Debug: 553 42 hla_target.c:764 adapter_write_memory(): adapter_write_memory 0xe000edf4 4 1
Debug: 554 42 hla_target.c:750 adapter_read_memory(): adapter_read_memory 0xe000edf8 4 1
Debug: 555 43 target.c:2240 target_read_u32(): address: 0xe000edf8, value: 0x00000000
Debug: 556 43 hla_target.c:96 adapter_load_core_reg_u32(): load from FPU reg S17  value 0x0
Debug: 557 43 hla_target.c:58 adapter_load_core_reg_u32(): adapter_load_core_reg_u32
Debug: 558 43 target.c:2328 target_write_u32(): address: 0xe000edf4, value: 0x00000052
Debug: 559 43 hla_target.c:764 adapter_write_memory(): adapter_write_memory 0xe000edf4 4 1
Debug: 560 43 hla_target.c:750 adapter_read_memory(): adapter_read_memory 0xe000edf8 4 1
Debug: 561 43 target.c:2240 target_read_u32(): address: 0xe000edf8, value: 0x00000000
Debug: 562 43 hla_target.c:96 adapter_load_core_reg_u32(): load from FPU reg S18  value 0x0
Debug: 563 43 hla_target.c:58 adapter_load_core_reg_u32(): adapter_load_core_reg_u32
Debug: 564 43 target.c:2328 target_write_u32(): address: 0xe000edf4, value: 0x00000053
Debug: 565 43 hla_target.c:764 adapter_write_memory(): adapter_write_memory 0xe000edf4 4 1
Debug: 566 44 hla_target.c:750 adapter_read_memory(): adapter_read_memory 0xe000edf8 4 1
Debug: 567 44 target.c:2240 target_read_u32(): address: 0xe000edf8, value: 0x00000000
Debug: 568 44 hla_target.c:96 adapter_load_core_reg_u32(): load from FPU reg S19  value 0x0
Debug: 569 44 hla_target.c:58 adapter_load_core_reg_u32(): adapter_load_core_reg_u32
Debug: 570 44 target.c:2328 target_write_u32(): address: 0xe000edf4, value: 0x00000054
Debug: 571 44 hla_target.c:764 adapter_write_memory(): adapter_write_memory 0xe000edf4 4 1
Debug: 572 44 hla_target.c:750 adapter_read_memory(): adapter_read_memory 0xe000edf8 4 1
Debug: 573 45 target.c:2240 target_read_u32(): address: 0xe000edf8, value: 0x00000000
Debug: 574 45 hla_target.c:96 adapter_load_core_reg_u32(): load from FPU reg S20  value 0x0
Debug: 575 45 hla_target.c:58 adapter_load_core_reg_u32(): adapter_load_core_reg_u32
Debug: 576 45 target.c:2328 target_write_u32(): address: 0xe000edf4, value: 0x00000055
Debug: 577 45 hla_target.c:764 adapter_write_memory(): adapter_write_memory 0xe000edf4 4 1
Debug: 578 45 hla_target.c:750 adapter_read_memory(): adapter_read_memory 0xe000edf8 4 1
Debug: 579 46 target.c:2240 target_read_u32(): address: 0xe000edf8, value: 0x00000000
Debug: 580 46 hla_target.c:96 adapter_load_core_reg_u32(): load from FPU reg S21  value 0x0
Debug: 581 46 hla_target.c:58 adapter_load_core_reg_u32(): adapter_load_core_reg_u32
Debug: 582 46 target.c:2328 target_write_u32(): address: 0xe000edf4, value: 0x00000056
Debug: 583 46 hla_target.c:764 adapter_write_memory(): adapter_write_memory 0xe000edf4 4 1
Debug: 584 46 hla_target.c:750 adapter_read_memory(): adapter_read_memory 0xe000edf8 4 1
Debug: 585 46 target.c:2240 target_read_u32(): address: 0xe000edf8, value: 0x00000000
Debug: 586 46 hla_target.c:96 adapter_load_core_reg_u32(): load from FPU reg S22  value 0x0
Debug: 587 46 hla_target.c:58 adapter_load_core_reg_u32(): adapter_load_core_reg_u32
Debug: 588 46 target.c:2328 target_write_u32(): address: 0xe000edf4, value: 0x00000057
Debug: 589 46 hla_target.c:764 adapter_write_memory(): adapter_write_memory 0xe000edf4 4 1
Debug: 590 47 hla_target.c:750 adapter_read_memory(): adapter_read_memory 0xe000edf8 4 1
Debug: 591 47 target.c:2240 target_read_u32(): address: 0xe000edf8, value: 0x00000000
Debug: 592 47 hla_target.c:96 adapter_load_core_reg_u32(): load from FPU reg S23  value 0x0
Debug: 593 47 hla_target.c:58 adapter_load_core_reg_u32(): adapter_load_core_reg_u32
Debug: 594 47 target.c:2328 target_write_u32(): address: 0xe000edf4, value: 0x00000058
Debug: 595 47 hla_target.c:764 adapter_write_memory(): adapter_write_memory 0xe000edf4 4 1
Debug: 596 47 hla_target.c:750 adapter_read_memory(): adapter_read_memory 0xe000edf8 4 1
Debug: 597 48 target.c:2240 target_read_u32(): address: 0xe000edf8, value: 0x00000000
Debug: 598 48 hla_target.c:96 adapter_load_core_reg_u32(): load from FPU reg S24  value 0x0
Debug: 599 48 hla_target.c:58 adapter_load_core_reg_u32(): adapter_load_core_reg_u32
Debug: 600 48 target.c:2328 target_write_u32(): address: 0xe000edf4, value: 0x00000059
Debug: 601 48 hla_target.c:764 adapter_write_memory(): adapter_write_memory 0xe000edf4 4 1
Debug: 602 48 hla_target.c:750 adapter_read_memory(): adapter_read_memory 0xe000edf8 4 1
Debug: 603 49 target.c:2240 target_read_u32(): address: 0xe000edf8, value: 0x00000000
Debug: 604 49 hla_target.c:96 adapter_load_core_reg_u32(): load from FPU reg S25  value 0x0
Debug: 605 49 hla_target.c:58 adapter_load_core_reg_u32(): adapter_load_core_reg_u32
Debug: 606 49 target.c:2328 target_write_u32(): address: 0xe000edf4, value: 0x0000005a
Debug: 607 49 hla_target.c:764 adapter_write_memory(): adapter_write_memory 0xe000edf4 4 1
Debug: 608 49 hla_target.c:750 adapter_read_memory(): adapter_read_memory 0xe000edf8 4 1
Debug: 609 49 target.c:2240 target_read_u32(): address: 0xe000edf8, value: 0x00000000
Debug: 610 49 hla_target.c:96 adapter_load_core_reg_u32(): load from FPU reg S26  value 0x0
Debug: 611 49 hla_target.c:58 adapter_load_core_reg_u32(): adapter_load_core_reg_u32
Debug: 612 49 target.c:2328 target_write_u32(): address: 0xe000edf4, value: 0x0000005b
Debug: 613 49 hla_target.c:764 adapter_write_memory(): adapter_write_memory 0xe000edf4 4 1
Debug: 614 50 hla_target.c:750 adapter_read_memory(): adapter_read_memory 0xe000edf8 4 1
Debug: 615 50 target.c:2240 target_read_u32(): address: 0xe000edf8, value: 0x00000000
Debug: 616 50 hla_target.c:96 adapter_load_core_reg_u32(): load from FPU reg S27  value 0x0
Debug: 617 50 hla_target.c:58 adapter_load_core_reg_u32(): adapter_load_core_reg_u32
Debug: 618 50 target.c:2328 target_write_u32(): address: 0xe000edf4, value: 0x0000005c
Debug: 619 50 hla_target.c:764 adapter_write_memory(): adapter_write_memory 0xe000edf4 4 1
Debug: 620 50 hla_target.c:750 adapter_read_memory(): adapter_read_memory 0xe000edf8 4 1
Debug: 621 51 target.c:2240 target_read_u32(): address: 0xe000edf8, value: 0x00000000
Debug: 622 51 hla_target.c:96 adapter_load_core_reg_u32(): load from FPU reg S28  value 0x0
Debug: 623 51 hla_target.c:58 adapter_load_core_reg_u32(): adapter_load_core_reg_u32
Debug: 624 51 target.c:2328 target_write_u32(): address: 0xe000edf4, value: 0x0000005d
Debug: 625 51 hla_target.c:764 adapter_write_memory(): adapter_write_memory 0xe000edf4 4 1
Debug: 626 51 hla_target.c:750 adapter_read_memory(): adapter_read_memory 0xe000edf8 4 1
Debug: 627 52 target.c:2240 target_read_u32(): address: 0xe000edf8, value: 0x00000000
Debug: 628 52 hla_target.c:96 adapter_load_core_reg_u32(): load from FPU reg S29  value 0x0
Debug: 629 52 hla_target.c:58 adapter_load_core_reg_u32(): adapter_load_core_reg_u32
Debug: 630 52 target.c:2328 target_write_u32(): address: 0xe000edf4, value: 0x0000005e
Debug: 631 52 hla_target.c:764 adapter_write_memory(): adapter_write_memory 0xe000edf4 4 1
Debug: 632 52 hla_target.c:750 adapter_read_memory(): adapter_read_memory 0xe000edf8 4 1
Debug: 633 52 target.c:2240 target_read_u32(): address: 0xe000edf8, value: 0x00000000
Debug: 634 52 hla_target.c:96 adapter_load_core_reg_u32(): load from FPU reg S30  value 0x0
Debug: 635 52 hla_target.c:58 adapter_load_core_reg_u32(): adapter_load_core_reg_u32
Debug: 636 52 target.c:2328 target_write_u32(): address: 0xe000edf4, value: 0x0000005f
Debug: 637 52 hla_target.c:764 adapter_write_memory(): adapter_write_memory 0xe000edf4 4 1
Debug: 638 53 hla_target.c:750 adapter_read_memory(): adapter_read_memory 0xe000edf8 4 1
Debug: 639 53 target.c:2240 target_read_u32(): address: 0xe000edf8, value: 0x00000000
Debug: 640 53 hla_target.c:96 adapter_load_core_reg_u32(): load from FPU reg S31  value 0x0
Debug: 641 53 hla_target.c:58 adapter_load_core_reg_u32(): adapter_load_core_reg_u32
Debug: 642 53 target.c:2328 target_write_u32(): address: 0xe000edf4, value: 0x00000021
Debug: 643 53 hla_target.c:764 adapter_write_memory(): adapter_write_memory 0xe000edf4 4 1
Debug: 644 53 hla_target.c:750 adapter_read_memory(): adapter_read_memory 0xe000edf8 4 1
Debug: 645 54 target.c:2240 target_read_u32(): address: 0xe000edf8, value: 0x00000000
Debug: 646 54 hla_target.c:84 adapter_load_core_reg_u32(): load from FPSCR  value 0x0
Debug: 647 54 hla_target.c:431 adapter_debug_entry(): entered debug state in core mode: Thread at PC 0x08001124, target->state: halted
Debug: 648 54 target.c:1517 target_call_event_callbacks(): target event 0 (gdb-halt)
Debug: 649 54 target.c:1517 target_call_event_callbacks(): target event 1 (halted)
User : 650 54 armv7m.c:556 armv7m_arch_state(): target halted due to debug-request, current mode: Thread 
xPSR: 0x61000000 pc: 0x08001124 msp: 0x200095cc
Debug: 651 54 hla_target.c:470 adapter_poll(): halted: PC: 0x08001124
Debug: 652 54 command.c:143 script_debug(): command - ocd_command ocd_command type ocd_sleep 1000
Debug: 653 54 command.c:143 script_debug(): command - sleep ocd_sleep 1000
warn|perf_ex.c:368->perf_ex_data_in(): Cannot find function at address 8afc1124
er(): Message 0, LIBSWO_PACKET_TYPE_DWT_PC_SAMPLE 
debg|decoder_swo.c:66->default_packet_handler(): Message 0, LIBSWO_PACKET_TYPE_OF 
debg|decoder_swo.c:66->default_packet_handler(): Message 0, LIBSWO_PACKET_TYPE_DWT_PC_SAMPLE 
debg|decoder_swo.c:66->default_packet_handler(): Message 0, LIBSWO_PACKET_TYPE_OF 
debg|decoder_swo.c:66->default_packet_handler(): Message 0, LIBSWO_PACKET_TYPE_DWT_PC_SAMPLE 
debg|decoder_swo.c:66->default_packet_handler(): Message 0, LIBSWO_PACKET_TYPE_OF 
debg|decoder_swo.c:66->default_packet_handler(): Message 0, LIBSWO_PACKET_TYPE_DWT_PC_SAMPLE 
debg|decoder_swo.c:66->default_packet_handler(): Message 0, LIBSWO_PACKET_TYPE_OF 
debg|decoder_swo.c:66->default_packet_handler(): Message 0, LIBSWO_PACKET_TYPE_DWT_PC_SAMPLE 
debg|decoder_swo.c:66->default_packet_handler(): Message 0, LIBSWO_PACKET_TYPE_OF 
debg|decoder_swo.c:66->default_packet_handler(): Message 0, LIBSWO_PACKET_TYPE_DWT_PC_SAMPLE 
debg|decoder_swo.c:66->default_packet_handler(): Message 0, LIBSWO_PACKET_TYPE_OF 
debg|decoder_swo.c:66->default_packet_handler(): Message 0, LIBSWO_PACKET_TYPE_DWT_PC_SAMPLE 
debg|decoder_swo.c:66->default_packet_handler(): Message 0, LIBSWO_PACKET_TYPE_OF 
debg|decoder_swo.c:66->default_packet_handler(): Message 0, LIBSWO_PACKET_TYPE_DWT_PC_SAMPLE 
debg|decoder_swo.c:66->default_packet_handler(): Message 0, LIBSWO_PACKET_TYPE_UNKNOWN 
debg|decoder_swo.c:66->default_packet_handler(): Message 0, LIBSWO_PACKET_TYPE_UNKNOWN 
debg|decoder_swo.c:214->decoder_swo_data_in(): decoded 21
debg|decoder_swo.c:216->decoder_swo_data_in(): total size decoded 840
debg|decoder_swo.c:217->decoder_swo_data_in(): Total number of decoded packet 21
debg|decoder_swo.c:239->decoder_swo_data_out(): Number of data received 840
debg|pkt_converter.c:594->pkt_convert(): Number of packet received 21
debg|decoder_swo.c:66->default_packet_handler(): Message 0, LIBSWO_PACKET_TYPE_EXT 
debg|decoder_swo.c:66->default_packet_handler(): Message 0, LIBSWO_PACKET_TYPE_HW 
debg|decoder_swo.c:66->default_packet_handler(): Message 0, LIBSWO_PACKET_TYPE_INST 
debg|decoder_swo.c:66->default_packet_handler(): Message 0, LIBSWO_PACKET_TYPE_EXT 
debg|decoder_swo.c:66->default_packet_handler(): Message 0, LIBSWO_PACKET_TYPE_HW 
debg|decoder_swo.c:66->default_packet_handler(): Message 0, LIBSWO_PACKET_TYPE_INST 
debg|decoder_swo.c:66->default_packet_handler(): Message 0, LIBSWO_PACKET_TYPE_EXT 
debg|decoder_swo.c:66->default_packet_handler(): Message 0, LIBSWO_PACKET_TYPE_OF 
debg|decoder_swo.c:66->default_packet_handler(): Message 0, LIBSWO_PACKET_TYPE_DWT_PC_SAMPLE 
debg|decoder_swo.c:66->default_packet_handler(): Message 0, LIBSWO_PACKET_TYPE_OF 
debg|decoder_swo.c:66->default_packet_handler(): Message 0, LIBSWO_PACKET_TYPE_DWT_PC_SAMPLE 
debg|decoder_swo.c:66->default_packet_handler(): Message 0, LIBSWO_PACKET_TYPE_OF 
debg|decoder_swo.c:66->default_packet_handler(): Message 0, LIBSWO_PACKET_TYPE_DWT_PC_SAMPLE 
debg|decoder_swo.c:66->default_packet_handler(): Message 0, LIBSWO_PACKET_TYPE_OF 
debg|decoder_swo.c:66->default_packet_handler(): Message 0, LIBSWO_PACKET_TYPE_DWT_PC_SAMPLE 
debg|decoder_swo.c:66->default_packet_handler(): Message 0, LIBSWO_PACKET_TYPE_OF 
debg|decoder_swo.c:66->default_packet_handler(): Message 0, LIBSWO_PACKET_TYPE_DWT_PC_SAMPLE 
debg|decoder_swo.c:66->default_packet_handler(): Message 0, LIBSWO_PACKET_TYPE_OF 
debg|decoder_swo.c:66->default_packet_handler(): Message 0, LIBSWO_PACKET_TYPE_DWT_PC_SAMPLE 
debg|decoder_swo.c:66->default_packet_handler(): Message 0, LIBSWO_PACKET_TYPE_OF 
debg|decoder_swo.c:66->default_packet_handler(): Message 0, LIBSWO_PACKET_TYPE_DWT_PC_SAMPLE 
debg|decoder_swo.c:66->default_packet_handler(): Message 0, LIBSWO_PACKET_TYPE_OF 
debg|decoder_swo.c:66->default_packet_handler(): Message 0, LIBSWO_PACKET_TYPE_DWT_PC_SAMPLE 
debg|decoder_swo.c:66->default_packet_handler(): Message 0, LIBSWO_PACKET_TYPE_OF 
debg|decoder_swo.c:66->default_packet_handler(): Message 0, LIBSWO_PACKET_TYPE_DWT_PC_SAMPLE 
debg|decoder_swo.c:66->default_packet_handler(): Message 0, LIBSWO_PACKET_TYPE_OF 
debg|decodewarn|processing.c:49->processing_data_out_default(): No callback defined yet
Debug: 657 1055 command.c:143 script_debug(): command - ocd_command ocd_command type ocd_mww 0xe000edfc 0x01000000
Debug: 658 1055 command.c:143 script_debug(): command - mww ocd_mww 0xe000edfc 0x01000000
Debug: 660 1055 hla_target.c:764 adapter_write_memory(): adapter_write_memory 0xe000edfc 4 1
Debug: 661 1056 command.c:143 script_debug(): command - ocd_command ocd_command type ocd_mww 0xe0040010 0x5B1
Debug: 662 1056 command.c:143 script_debug(): command - mww ocd_mww 0xe0040010 0x5B1
Debug: 664 1056 hla_target.c:764 adapter_write_memory(): adapter_write_memory 0xe0040010 4 1
Debug: 665 1056 command.c:143 script_debug(): command - ocd_command ocd_command type ocd_mww 0xe00400f0 0x2
Debug: 666 1057 command.c:143 script_debug(): command - mww ocd_mww 0xe00400f0 0x2
Debug: 668 1057 hla_target.c:764 adapter_write_memory(): adapter_write_memory 0xe00400f0 4 1
Debug: 669 1057 command.c:143 script_debug(): command - ocd_command ocd_command type ocd_mww 0xe0040304 0x100
Debug: 670 1057 command.c:143 script_debug(): command - mww ocd_mww 0xe0040304 0x100
Debug: 672 1058 hla_target.c:764 adapter_write_memory(): adapter_write_memory 0xe0040304 4 1
Debug: 673 1058 hla_target.c:750 adapter_read_memory(): adapter_read_memory 0xe0042004 4 1
Debug: 674 1059 hla_target.c:764 adapter_write_memory(): adapter_write_memory 0xe0042004 4 1
Debug: 675 1059 command.c:143 script_debug(): command - ocd_command ocd_command type ocd_mww 0xe0001000 0x40001E1F
Debug: 676 1059 command.c:143 script_debug(): command - mww ocd_mww 0xe0001000 0x40001E1F
Debug: 678 1059 hla_target.c:764 adapter_write_memory(): adapter_write_memory 0xe0001000 4 1
Debug: 679 1060 command.c:143 script_debug(): command - ocd_command ocd_command type ocd_mww 0xe0000fb0 0xC5ACCE55
Debug: 680 1060 command.c:143 script_debug(): command - mww ocd_mww 0xe0000fb0 0xC5ACCE55
Debug: 682 1060 hla_target.c:764 adapter_write_memory(): adapter_write_memory 0xe0000fb0 4 1
Debug: 683 1061 command.c:143 script_debug(): command - ocd_command ocd_command type ocd_mww 0xe0000e80 0x0001030F
Debug: 684 1061 command.c:143 script_debug(): command - mww ocd_mww 0xe0000e80 0x0001030F
Debug: 686 1061 hla_target.c:764 adapter_write_memory(): adapter_write_memory 0xe0000e80 4 1
Debug: 687 1061 command.c:143 script_debug(): command - ocd_command ocd_command type ocd_resume
Debug: 688 1061 command.c:143 script_debug(): command - resume ocd_resume
Debug: 690 1062 target.c:1517 target_call_event_callbacks(): target event 3 (resume-start)
Debug: 691 1062 hla_target.c:598 adapter_resume(): adapter_resume 1 0x00000000 1 0
Debug: 692 1062 target.c:1899 target_free_all_working_areas_restore(): freeing all working areas
Debug: 693 1062 target.c:2328 target_write_u32(): address: 0xe000edfc, value: 0x01000000
Debug: 694 1062 hla_target.c:764 adapter_write_memory(): adapter_write_memory 0xe000edfc 4 1
Debug: 695 1062 armv7m.c:144 armv7m_restore_context():  
Debug: 696 1062 target.c:2328 target_write_u32(): address: 0xe000edf8, value: 0x00000000
Debug: 697 1062 hla_target.c:764 adapter_write_memory(): adapter_write_memory 0xe000edf8 4 1
Debug: 698 1063 target.c:1517 target_call_event_callbacks(): target event 2 (resumed)
Debug: 699 1063 target.c:1517 target_call_event_callbacks(): target event 4 (resume-end)
Debug: 700 1063 command.c:143 script_debug(): command - ocd_command ocd_command type ocd_init
Debug: 701 1063 command.c:143 script_debug(): command - init ocd_init
Debug: 703 1063 command.c:143 script_debug(): command - ocd_command ocd_command type ocd_reset run
Debug: 704 1063 command.c:143 script_debug(): command - reset ocd_reset run
Debug: 706 1063 target.c:1535 target_call_reset_callbacks(): target reset 1 (run)
Debug: 707 1063 command.c:143 script_debug(): command - ocd_command ocd_command type ocd_target names
Debug: 708 1063 command.c:143 script_debug(): command - ocd_target ocd_target names
Debug: 709 1063 command.c:143 script_debug(): command - ocd_command ocd_command type ocd_stm32f4x.cpu invoke-event reset-start
Debug: 710 1063 command.c:143 script_debug(): command - ocd_stm32f4x.cpu ocd_stm32f4x.cpu invoke-event reset-start
Debug: 711 1063 target.c:4313 target_handle_event(): target: (0) stm32f4x.cpu (hla_target) event: 7 (reset-start) action: 
	# Reduce speed since CPU speed will slow down to 16MHz with the reset
	adapter_khz 2000

Debug: 712 1063 command.c:143 script_debug(): command - ocd_command ocd_command type ocd_adapter_khz 2000
Debug: 713 1063 command.c:143 script_debug(): command - adapter_khz ocd_adapter_khz 2000
Debug: 715 1063 core.c:1631 jtag_config_khz(): handle jtag khz
Debug: 716 1063 core.c:1598 adapter_khz_to_speed(): convert khz to interface specific speed value
Debug: 717 1063 core.c:1601 adapter_khz_to_speed(): have interface set up
Info : 718 1063 stlink_usb.c:1608 stlink_speed(): Unable to match requested speed 2000 kHz, using 1800 kHz
Debug: 719 1064 core.c:1598 adapter_khz_to_speed(): convert khz to interface specific speed value
Debug: 720 1064 core.c:1601 adapter_khz_to_speed(): have interface set up
Info : 721 1064 stlink_usb.c:1608 stlink_speed(): Unable to match requested speed 2000 kHz, using 1800 kHz
User : 722 1064 command.c:544 command_print(): adapter speed: 1800 kHz
Debug: 723 1064 command.c:143 script_debug(): command - ocd_command ocd_command type ocd_transport select
Debug: 724 1064 command.c:143 script_debug(): command - ocd_transport ocd_transport select
Debug: 725 1064 command.c:143 script_debug(): command - ocd_command ocd_command type ocd_transport select
Debug: 726 1064 command.c:143 script_debug(): command - ocd_transport ocd_transport select
Debug: 727 1064 command.c:143 script_debug(): command - ocd_command ocd_command type ocd_stm32f4x.cpu invoke-event examine-start
Debug: 728 1064 command.c:143 script_debug(): command - ocd_stm32f4x.cpu ocd_stm32f4x.cpu invoke-event examine-start
Debug: 729 1064 command.c:143 script_debug(): command - ocd_command ocd_command type ocd_stm32f4x.cpu arp_examine allow-defer
Debug: 730 1064 command.c:143 script_debug(): command - ocd_stm32f4x.cpu ocd_stm32f4x.cpu arp_examine allow-defer
Debug: 731 1064 command.c:143 script_debug(): command - ocd_command ocd_command type ocd_stm32f4x.cpu invoke-event examine-end
Debug: 732 1064 command.c:143 script_debug(): command - ocd_stm32f4x.cpu ocd_stm32f4x.cpu invoke-event examine-end
Debug: 733 1064 target.c:4313 target_handle_event(): target: (0) stm32f4x.cpu (hla_target) event: 22 (examine-end) action: 
	# Enable debug during low power modes (uses more power)
	# DBGMCU_CR |= DBG_STANDBY | DBG_STOP | DBG_SLEEP
	mmw 0xE0042004 0x00000007 0

	# Stop watchdog counters during halt
	# DBGMCU_APB1_FZ |= DBG_IWDG_STOP | DBG_WWDG_STOP
	mmw 0xE0042008 0x00001800 0

Debug: 734 1064 hla_target.c:750 adapter_read_memory(): adapter_read_memory 0xe0042004 4 1
Debug: 735 1064 command.c:143 script_debug(): command - ocd_command ocd_command type ocd_mww 0xE0042004 39
Debug: 736 1064 command.c:143 script_debug(): command - mww ocd_mww 0xE0042004 39
Debug: 738 1064 hla_target.c:764 adapter_write_memory(): adapter_write_memory 0xe0042004 4 1
Debug: 739 1065 hla_target.c:750 adapter_read_memory(): adapter_read_memory 0xe0042008 4 1
Debug: 740 1065 command.c:143 script_debug(): command - ocd_command ocd_command type ocd_mww 0xE0042008 6144
Debug: 741 1065 command.c:143 script_debug(): command - mww ocd_mww 0xE0042008 6144
Debug: 743 1065 hla_target.c:764 adapter_write_memory(): adapter_write_memory 0xe0042008 4 1
Debug: 744 1066 command.c:143 script_debug(): command - ocd_command ocd_command type ocd_stm32f4x.cpu invoke-event reset-assert-pre
Debug: 745 1066 command.c:143 script_debug(): command - ocd_stm32f4x.cpu ocd_stm32f4x.cpu invoke-event reset-assert-pre
Debug: 746 1066 command.c:143 script_debug(): command - ocd_command ocd_command type ocd_transport select
Debug: 747 1066 command.c:143 script_debug(): command - ocd_transport ocd_transport select
Debug: 748 1066 command.c:143 script_debug(): command - ocd_command ocd_command type ocd_stm32f4x.cpu arp_reset assert 0
Debug: 749 1066 command.c:143 script_debug(): command - ocd_stm32f4x.cpu ocd_stm32f4x.cpu arp_reset assert 0
Debug: 750 1066 target.c:1899 target_free_all_working_areas_restore(): freeing all working areas
Debug: 751 1066 hla_target.c:483 adapter_assert_reset(): adapter_assert_reset
Debug: 752 1067 command.c:143 script_debug(): command - ocd_command ocd_command type ocd_stm32f4x.cpu invoke-event reset-assert-post
Debug: 753 1067 command.c:143 script_debug(): command - ocd_stm32f4x.cpu ocd_stm32f4x.cpu invoke-event reset-assert-post
Debug: 754 1067 command.c:143 script_debug(): command - ocd_command ocd_command type ocd_stm32f4x.cpu invoke-event reset-deassert-pre
Debug: 755 1067 command.c:143 script_debug(): command - ocd_stm32f4x.cpu ocd_stm32f4x.cpu invoke-event reset-deassert-pre
Debug: 756 1067 command.c:143 script_debug(): command - ocd_command ocd_command type ocd_transport select
Debug: 757 1067 command.c:143 script_debug(): command - ocd_transport ocd_transport select
Debug: 758 1067 command.c:143 script_debug(): command - ocd_command ocd_command type ocd_stm32f4x.cpu arp_reset deassert 0
Debug: 759 1067 command.c:143 script_debug(): command - ocd_stm32f4x.cpu ocd_stm32f4x.cpu arp_reset deassert 0
Debug: 760 1068 target.c:1899 target_free_all_working_areas_restore(): freeing all working areas
Debug: 761 1068 hla_target.c:546 adapter_deassert_reset(): adapter_deassert_reset
Debug: 762 1068 target.c:1517 target_call_event_callbacks(): target event 3 (resume-start)
Debug: 763 1068 hla_target.c:598 adapter_resume(): adapter_resume 1 0x00000000 0 0
Debug: 764 1068 target.c:1899 target_free_all_working_areas_restore(): freeing all working areas
Debug: 765 1068 target.c:2328 target_write_u32(): address: 0xe000edfc, value: 0x01000000
Debug: 766 1068 hla_target.c:764 adapter_write_memory(): adapter_write_memory 0xe000edfc 4 1
Debug: 767 1068 armv7m.c:144 armv7m_restore_context():  
Debug: 768 1068 target.c:2328 target_write_u32(): address: 0xe000edf8, value: 0x00000000
Debug: 769 1068 hla_target.c:764 adapter_write_memory(): adapter_write_memory 0xe000edf8 4 1
Debug: 770 1068 target.c:1517 target_call_event_callbacks(): target event 2 (resumed)
Debug: 771 1068 target.c:1517 target_call_event_callbacks(): target event 4 (resume-end)
Debug: 772 1069 command.c:143 script_debug(): command - ocd_command ocd_command type ocd_stm32f4x.cpu invoke-event reset-deassert-post
Debug: 773 1069 command.c:143 script_debug(): command - ocd_stm32f4x.cpu ocd_stm32f4x.cpu invoke-event reset-deassert-post
Debug: 774 1069 command.c:143 script_debug(): command - ocd_command ocd_command type ocd_stm32f4x.cpu invoke-event reset-end
Debug: 775 1069 command.c:143 script_debug(): command - ocd_stm32f4x.cpu ocd_stm32f4x.cpu invoke-event reset-end
Debug: 776 1069 command.c:143 script_debug(): command - ocd_command ocd_command type ocd_init
Debug: 777 1069 command.c:143 script_debug(): command - init ocd_init
r_swo.c:66->default_packet_handler(): Message 0, LIBSWO_PACKET_TYPE_DWT_PC_SAMPLE 
debg|decoder_swo.c:66->default_packet_handler(): Message 0, LIBSWO_PACKET_TYPE_OF 
debg|decoder_swo.c:66->default_packet_handler(): Message 0, LIBSWO_PACKET_TYPE_DWT_PC_SAMPLE 
debg|decoder_swo.c:66->default_packet_handler(): Message 0, LIBSWO_PACKET_TYPE_OF 
debg|decoder_swo.c:66->default_packet_handler(): Message 0, LIBSWO_PACKET_TYPE_DWT_PC_SAMPLE 
debg|decoder_swo.c:66->default_packet_handler(): Message 0, LIBSWO_PACKET_TYPE_OF 
debg|decoder_swo.c:66->default_packet_handler(): Message 0, LIBSWO_PACKET_TYPE_DWT_PC_SAMPLE 
debg|decoder_swo.c:66->default_packet_handler(): Message 0, LIBSWO_PACKET_TYPE_OF 
debg|decoder_swo.c:66->default_packet_handler(): Message 0, LIBSWO_PACKET_TYPE_DWT_PC_SAMPLE 
debg|decoder_swo.c:66->default_packet_handler(): Message 0, LIBSWO_PACKET_TYPE_OF 
debg|decoder_swo.c:66->default_packet_handler(): Message 0, LIBSWO_PACKET_TYPE_DWT_PC_SAMPLE 
debg|decoder_swo.c:66->default_packet_handler(): Message 0, LIBSWO_PACKET_TYPE_OF 
debg|decoder_swo.c:66->default_packet_handler(): Message 0, LIBSWO_PACKET_TYPE_DWT_PC_SAMPLE 
debg|decoder_swo.c:66->default_packet_handler(): Message 0, LIBSWO_PACKET_TYPE_OF 
debg|decoder_swo.c:66->default_packet_handler(): Message 0, LIBSWO_PACKET_TYPE_DWT_PC_SAMPLE 
debg|decoder_swo.c:66->default_packet_handler(): Message 0, LIBSWO_PACKET_TYPE_OF 
debg|decoder_swo.c:66->default_packet_handler(): Message 0, LIBSWO_PACKET_TYPE_DWT_PC_SAMPLE 
debg|decoder_swo.c:66->default_packet_handler(): Message 0, LIBSWO_PACKET_TYPE_OF 
debg|decoder_swo.c:66->default_packet_handler(): Message 0, LIBSWO_PACKET_TYPE_DWT_PC_SAMPLE 
debg|decoder_swo.c:66->default_packet_handler(): Message 0, LIBSWO_PACKET_TYPE_OF 
debg|decoder_swo.c:214->decoder_swo_data_in(): decoded 19
debg|decoder_swo.c:216->decoder_swo_data_in(): total size decoded 760
debg|decoder_swo.c:217->decoder_swo_data_in(): Total number of decoded packet 40
debg|decoder_swo.c:239->decoder_swo_data_out(): Number of data received 760
debg|pkt_converter.c:594->pkt_convert(): Number of packet received 19
debg|decoder_swo.c:66->default_packet_handler(): Message 0, LIBSWO_PACKET_TYPE_DWT_PC_SAMPLE 
debg|decoder_swo.c:66->default_packet_handler(): Message 0, LIBSWO_PACKET_TYPE_OF 
debg|decoder_swo.c:66->default_packet_handler(): Message 0, LIBSWO_PACKET_TYPE_DWT_PC_SAMPLE 
debg|decoder_swo.c:66->default_packet_handler(): Message 0, LIBSWO_PACKET_TYPE_OF 
debg|decoder_swo.c:66->default_packet_handler(): Message 0, LIBSWO_PACKET_TYPE_DWT_PC_SAMPLE 
debg|decoder_swo.c:66->default_packet_handler(): Message 0, LIBSWO_PACKET_TYPE_OF 
debg|decoder_swo.c:66->default_packet_handler(): Message 0, LIBSWO_PACKET_TYPE_DWT_PC_SAMPLE 
debg|decoder_swo.c:66->default_packet_handler(): Message 0, LIBSWO_PACKET_TYPE_SYNC 
debg|decoder_swo.c:66->default_packet_handler(): Message 0, LIBSWO_PACKET_TYPE_OF 
debg|decoder_swo.c:66->default_packet_handler(): Message 0, LIBSWO_PACKET_TYPE_DWT_PC_SAMPLE 
debg|decoder_swo.c:66->default_packet_handler(): Message 0, LIBSWO_PACKET_TYPE_OF 
debg|decoder_swo.c:66->default_packet_handler(): Message 0, LIBSWO_PACKET_TYPE_LTS 
debg|decoder_swo.c:66->default_packet_handler(): Message 0, LIBSWO_PACKET_TYPE_DWT_PC_SAMPLE 
debg|decoder_swo.c:66->default_packet_handler(): Message 0, LIBSWO_PACKET_TYPE_LTS 
debg|decoder_swo.c:66->default_packet_handler(): Message 0, LIBSWO_PACKET_TYPE_DWT_PC_SAMPLE 
debg|decoder_swo.c:66->default_packet_handler(): Message 0, LIBSWO_PACKET_TYPE_LTS 
debg|decoder_swo.c:66->default_packet_handler(): Message 0, LIBSWO_PACKET_TYPE_DWT_PC_SAMPLE 
debg|decoder_swo.c:66->default_packet_handler(): Message 0, LIBSWO_PACKET_TYPE_OF 
debg|decoder_swo.c:66->default_packet_handler(): Message 0, LIBSWO_PACKET_TYPE_DWT_PC_SAMPLE 
debg|decoder_swo.c:66->default_packet_handler(): Message 0, LIBSWO_PACKET_TYPE_OF 
debg|decoder_swo.c:66->default_packet_handler(): Message 0, LIBSWO_PACKET_TYPE_DWT_PC_SAMPLE 
debg|decoder_swo.c:66->default_packet_handler(): Message 0, LIBSWO_PACKET_TYPE_OF 
debg|decoder_swo.c:66->default_packet_hanwarn|processing.c:49->processing_data_out_default(): No callback defined yet
dler(): Message 0, LIBSWO_PACKET_TYPE_DWT_PC_SAMPLE 
debg|decoder_swo.c:66->default_packet_handler(): Message 0, LIBSWO_PACKET_TYPE_OF 
debg|decoder_swo.c:66->default_packet_handler(): Message 0, LIBSWO_PACKET_TYPE_DWT_PC_SAMPLE 
debg|decoder_swo.c:66->default_packet_handler(): Message 0, LIBSWO_PACKET_TYPE_OF 
debg|decoder_swo.c:66->default_packet_handler(): Message 0, LIBSWO_PACKET_TYPE_DWT_PC_SAMPLE 
debg|decoder_swo.c:66->default_packet_handler(): Message 0, LIBSWO_PACKET_TYPE_OF 
debg|decoder_swo.c:66->default_packet_handler(): Message 0, LIBSWO_PACKET_TYPE_DWT_PC_SAMPLE 
debg|decoder_swo.c:66->default_packet_handler(): Message 0, LIBSWO_PACKET_TYPE_OF 
debg|decoder_swo.c:66->default_packet_handler(): Message 0, LIBSWO_PACKET_TYPE_DWT_PC_SAMPLE 
debg|decoder_swo.c:66->default_packet_handler(): Message 0, LIBSWO_PACKET_TYPE_OF 
debg|decoder_swo.c:66->default_packet_handler(): Message 0, LIBSWO_PACKET_TYPE_DWT_PC_SAMPLE 
debg|decoder_swo.c:66->default_packet_handler(): Message 0, LIBSWO_PACKET_TYPE_OF 
debg|decoder_swo.c:66->default_packet_handler(): Message 0, LIBSWO_PACKET_TYPE_DWT_PC_SAMPLE 
debg|decoder_swo.c:66->default_packet_handler(): Message 0, LIBSWO_PACKET_TYPE_OF 
debg|decoder_swo.c:66->default_packet_handler(): Message 0, LIBSWO_PACKET_TYPE_DWT_PC_SAMPLE 
debg|decoder_swo.c:66->default_packet_handler(): Message 0, LIBSWO_PACKET_TYPE_OF 
debg|decoder_swo.c:66->default_packet_handler(): Message 0, LIBSWO_PACKET_TYPE_DWT_PC_SAMPLE 
debg|decoder_swo.c:66->default_packet_handler(): Message 0, LIBSWO_PACKET_TYPE_OF 
debg|decoder_swo.c:214->decoder_swo_data_in(): decoded 19
debg|decoder_swo.c:216->decoder_swo_data_in(): total size decoded 760
debg|decoder_swo.c:217->decoder_swo_data_in(): Total number of decoded packet 59
debg|decoder_swo.c:239->decoder_swo_data_out(): Number of data received 760
debg|pkt_converter.c:594->pkt_convert(): Number of packet received 19
debg|decoder_swo.c:66->default_packet_handler(): Message 0, LIBSWO_PACKET_TYPE_DWT_PC_SAMPLE 
debg|decoder_swo.c:66->default_packet_handler(): Message 0, LIBSWO_PACKET_TYPE_OF 
debg|decoder_swo.c:66->default_packet_handler(): Message 0, LIBSWO_PACKET_TYPE_DWT_PC_SAMPLE 
debg|decoder_swo.c:66->default_packet_handler(): Message 0, LIBSWO_PACKET_TYPE_OF 
debg|decoder_swo.c:66->default_packet_handler(): Message 0, LIBSWO_PACKET_TYPE_DWT_PC_SAMPLE 
debg|decoder_swo.c:66->default_packet_handler(): Message 0, LIBSWO_PACKET_TYPE_OF 
debg|decoder_swo.c:66->default_packet_handler(): Message 0, LIBSWO_PACKET_TYPE_DWT_PC_SAMPLE 
debg|decoder_swo.c:66->default_packet_handler(): Message 0, LIBSWO_PACKET_TYPE_OF 
debg|decoder_swo.c:66->default_packet_handler(): Message 0, LIBSWO_PACKET_TYPE_DWT_PC_SAMPLE 
debg|decoder_swo.c:66->default_packet_handler(): Message 0, LIBSWO_PACKET_TYPE_OF 
debg|decoder_swo.c:66->default_packet_handler(): Message 0, LIBSWO_PACKET_TYPE_DWT_PC_SAMPLE 
debg|decoder_swo.c:66->default_packet_handler(): Message 0, LIBSWO_PACKET_TYPE_OF 
debg|decoder_swo.c:66->default_packet_handler(): Message 0, LIBSWO_PACKET_TYPE_DWT_PC_SAMPLE 
debg|decoder_swo.c:66->default_packet_handler(): Message 0, LIBSWO_PACKET_TYPE_OF 
debg|decoder_swo.c:66->default_packet_handler(): Message 0, LIBSWO_PACKET_TYPE_DWT_PC_SAMPLE 
debg|decoder_swo.c:66->default_packet_handler(): Message 0, LIBSWO_PACKET_TYPE_OF 
debg|decoder_swo.c:66->default_packet_handler(): Message 0, LIBSWO_PACKET_TYPE_DWT_PC_SAMPLE 
debg|decoder_swo.c:66->default_packet_handler(): Message 0, LIBSWO_PACKET_TYPE_OF 
debg|decoder_swo.c:66->default_packet_handler(): Message 0, LIBSWO_PACKET_TYPE_DWT_PC_SAMPLE 
debg|decoder_swo.c:66->default_packet_handler(): Message 0, LIBSWO_PACKET_TYPE_OF 
debg|decoder_swo.c:66->default_packet_handler(): Message 0, LIBSWO_PACKET_TYPE_DWT_PC_SAMPLE 
debg|decoder_swo.c:66->default_packet_handler(): Message 0, LIBSWO_PACKET_TYPE_OF 
debg|decoder_swo.c:66->default_packet_handler(): Message 0, LIBSWO_PACKET_TYPE_DWT_PC_SAMPLE 
debg|decoder_swo.c:66->default_packet_handler(): Message 0, LIBSWO_PACKET_TYPE_OF 
debg|decoder_swo.c:66->default_packet_handler(): Message 0, LIBSWwarn|processing.c:49->processing_data_out_default(): No callback defined yet
O_PACKET_TYPE_DWT_PC_SAMPLE 
debg|decoder_swo.c:66->default_packet_handler(): Message 0, LIBSWO_PACKET_TYPE_OF 
debg|decoder_swo.c:66->default_packet_handler(): Message 0, LIBSWO_PACKET_TYPE_DWT_PC_SAMPLE 
debg|decoder_swo.c:66->default_packet_handler(): Message 0, LIBSWO_PACKET_TYPE_OF 
debg|decoder_swo.c:66->default_packet_handler(): Message 0, LIBSWO_PACKET_TYPE_DWT_PC_SAMPLE 
debg|decoder_swo.c:66->default_packet_handler(): Message 0, LIBSWO_PACKET_TYPE_OF 
debg|decoder_swo.c:66->default_packet_handler(): Message 0, LIBSWO_PACKET_TYPE_DWT_PC_SAMPLE 
debg|decoder_swo.c:66->default_packet_handler(): Message 0, LIBSWO_PACKET_TYPE_OF 
debg|decoder_swo.c:66->default_packet_handler(): Message 0, LIBSWO_PACKET_TYPE_DWT_PC_SAMPLE 
debg|decoder_swo.c:66->default_packet_handler(): Message 0, LIBSWO_PACKET_TYPE_OF 
debg|decoder_swo.c:66->default_packet_handler(): Message 0, LIBSWO_PACKET_TYPE_DWT_PC_SAMPLE 
debg|decoder_swo.c:66->default_packet_handler(): Message 0, LIBSWO_PACKET_TYPE_OF 
debg|decoder_swo.c:66->default_packet_handler(): Message 0, LIBSWO_PACKET_TYPE_DWT_PC_SAMPLE 
debg|decoder_swo.c:66->default_packet_handler(): Message 0, LIBSWO_PACKET_TYPE_OF 
debg|decoder_swo.c:66->default_packet_handler(): Message 0, LIBSWO_PACKET_TYPE_DWT_PC_SAMPLE 
debg|decoder_swo.c:66->default_packet_handler(): Message 0, LIBSWO_PACKET_TYPE_OF 
debg|decoder_swo.c:66->default_packet_handler(): Message 0, LIBSWO_PACKET_TYPE_DWT_PC_SAMPLE 
debg|decoder_swo.c:66->default_packet_handler(): Message 0, LIBSWO_PACKET_TYPE_OF 
debg|decoder_swo.c:214->decoder_swo_data_in(): decoded 21
debg|decoder_swo.c:216->decoder_swo_data_in(): total size decoded 840
debg|decoder_swo.c:217->decoder_swo_data_in(): Total number of decoded packet 80
debg|decoder_swo.c:239->decoder_swo_data_out(): Number of data received 840
debg|pkt_converter.c:594->pkt_convert(): Number of packet received 21
debg|decoder_swo.c:66->default_packet_handler(): Message 0, LIBSWO_PACKET_TYPE_DWT_PC_SAMPLE 
debg|decoder_swo.c:66->default_packet_handler(): Message 0, LIBSWO_PACKET_TYPE_OF 
debg|decoder_swo.c:66->default_packet_handler(): Message 0, LIBSWO_PACKET_TYPE_DWT_PC_SAMPLE 
debg|decoder_swo.c:66->default_packet_handler(): Message 0, LIBSWO_PACKET_TYPE_OF 
debg|decoder_swo.c:66->default_packet_handler(): Message 0, LIBSWO_PACKET_TYPE_DWT_PC_SAMPLE 
debg|decoder_swo.c:66->default_packet_handler(): Message 0, LIBSWO_PACKET_TYPE_OF 
debg|decoder_swo.c:66->default_packet_handler(): Message 0, LIBSWO_PACKET_TYPE_DWT_PC_SAMPLE 
debg|decoder_swo.c:66->default_packet_handler(): Message 0, LIBSWO_PACKET_TYPE_OF 
debg|decoder_swo.c:66->default_packet_handler(): Message 0, LIBSWO_PACKET_TYPE_DWT_PC_SAMPLE 
debg|decoder_swo.c:66->default_packet_handler(): Message 0, LIBSWO_PACKET_TYPE_OF 
debg|decoder_swo.c:66->default_packet_handler(): Message 0, LIBSWO_PACKET_TYPE_DWT_PC_SAMPLE 
debg|decoder_swo.c:66->default_packet_handler(): Message 0, LIBSWO_PACKET_TYPE_OF 
debg|decoder_swo.c:66->default_packet_handler(): Message 0, LIBSWO_PACKET_TYPE_DWT_PC_SAMPLE 
debg|decoder_swo.c:66->default_packet_handler(): Message 0, LIBSWO_PACKET_TYPE_OF 
debg|decoder_swo.c:66->default_packet_handler(): Message 0, LIBSWO_PACKET_TYPE_DWT_PC_SAMPLE 
debg|decoder_swo.c:66->default_packet_handler(): Message 0, LIBSWO_PACKET_TYPE_OF 
debg|decoder_swo.c:66->default_packet_handler(): Message 0, LIBSWO_PACKET_TYPE_DWT_PC_SAMPLE 
debg|decoder_swo.c:66->default_packet_handler(): Message 0, LIBSWO_PACKET_TYPE_OF 
debg|decoder_swo.c:66->default_packet_handler(): Message 0, LIBSWO_PACKET_TYPE_DWT_PC_SAMPLE 
debg|decoder_swo.c:66->default_packet_handler(): Message 0, LIBSWO_PACKET_TYPE_OF 
debg|decoder_swo.c:66->default_packet_handler(): Message 0, LIBSWO_PACKET_TYPE_DWT_PC_SAMPLE 
debg|decoder_swo.c:66->default_packet_handler(): Message 0, LIBSWO_PACKET_TYPE_OF 
debg|decoder_swo.c:66->default_packet_handler(): Message 0, LIBSWO_PACKET_TYPE_DWT_PC_SAMPLE 
debg|decoder_swo.c:66->default_packet_handler(): Message 0, LIBSWO_PACKET_TYPE_OF 
debg|decoder_swo.c:66->default_packet_handler(): Message 0, LIBSWO_PACKET_TYPE_DWT_PC_SAMwarn|processing.c:49->processing_data_out_default(): No callback defined yet
PLE 
debg|decoder_swo.c:66->default_packet_handler(): Message 0, LIBSWO_PACKET_TYPE_OF 
debg|decoder_swo.c:66->default_packet_handler(): Message 0, LIBSWO_PACKET_TYPE_DWT_PC_SAMPLE 
debg|decoder_swo.c:66->default_packet_handler(): Message 0, LIBSWO_PACKET_TYPE_OF 
debg|decoder_swo.c:66->default_packet_handler(): Message 0, LIBSWO_PACKET_TYPE_DWT_PC_SAMPLE 
debg|decoder_swo.c:66->default_packet_handler(): Message 0, LIBSWO_PACKET_TYPE_OF 
debg|decoder_swo.c:66->default_packet_handler(): Message 0, LIBSWO_PACKET_TYPE_DWT_PC_SAMPLE 
debg|decoder_swo.c:66->default_packet_handler(): Message 0, LIBSWO_PACKET_TYPE_OF 
debg|decoder_swo.c:66->default_packet_handler(): Message 0, LIBSWO_PACKET_TYPE_DWT_PC_SAMPLE 
debg|decoder_swo.c:66->default_packet_handler(): Message 0, LIBSWO_PACKET_TYPE_OF 
debg|decoder_swo.c:66->default_packet_handler(): Message 0, LIBSWO_PACKET_TYPE_DWT_PC_SAMPLE 
debg|decoder_swo.c:66->default_packet_handler(): Message 0, LIBSWO_PACKET_TYPE_OF 
debg|decoder_swo.c:66->default_packet_handler(): Message 0, LIBSWO_PACKET_TYPE_DWT_PC_SAMPLE 
debg|decoder_swo.c:66->default_packet_handler(): Message 0, LIBSWO_PACKET_TYPE_OF 
debg|decoder_swo.c:66->default_packet_handler(): Message 0, LIBSWO_PACKET_TYPE_DWT_PC_SAMPLE 
debg|decoder_swo.c:66->default_packet_handler(): Message 0, LIBSWO_PACKET_TYPE_OF 
debg|decoder_swo.c:66->default_packet_handler(): Message 0, LIBSWO_PACKET_TYPE_DWT_PC_SAMPLE 
debg|decoder_swo.c:66->default_packet_handler(): Message 0, LIBSWO_PACKET_TYPE_OF 
debg|decoder_swo.c:66->default_packet_handler(): Message 0, LIBSWO_PACKET_TYPE_DWT_PC_SAMPLE 
debg|decoder_swo.c:214->decoder_swo_data_in(): decoded 22
debg|decoder_swo.c:216->decoder_swo_data_in(): total size decoded 880
debg|decoder_swo.c:217->decoder_swo_data_in(): Total number of decoded packet 102
debg|decoder_swo.c:239->decoder_swo_data_out(): Number of data received 880
debg|pkt_converter.c:594->pkt_convert(): Number of packet received 22
debg|decoder_swo.c:66->default_packet_handler(): Message 0, LIBSWO_PACKET_TYPE_OF 
debg|decoder_swo.c:66->default_packet_handler(): Message 0, LIBSWO_PACKET_TYPE_DWT_PC_SAMPLE 
debg|decoder_swo.c:66->default_packet_handler(): Message 0, LIBSWO_PACKET_TYPE_OF 
debg|decoder_swo.c:66->default_packet_handler(): Message 0, LIBSWO_PACKET_TYPE_DWT_PC_SAMPLE 
debg|decoder_swo.c:66->default_packet_handler(): Message 0, LIBSWO_PACKET_TYPE_OF 
debg|decoder_swo.c:66->default_packet_handler(): Message 0, LIBSWO_PACKET_TYPE_DWT_PC_SAMPLE 
debg|decoder_swo.c:66->default_packet_handler(): Message 0, LIBSWO_PACKET_TYPE_OF 
debg|decoder_swo.c:66->default_packet_handler(): Message 0, LIBSWO_PACKET_TYPE_DWT_PC_SAMPLE 
debg|decoder_swo.c:66->default_packet_handler(): Message 0, LIBSWO_PACKET_TYPE_OF 
debg|decoder_swo.c:66->default_packet_handler(): Message 0, LIBSWO_PACKET_TYPE_DWT_PC_SAMPLE 
debg|decoder_swo.c:66->default_packet_handler(): Message 0, LIBSWO_PACKET_TYPE_OF 
debg|decoder_swo.c:66->default_packet_handler(): Message 0, LIBSWO_PACKET_TYPE_DWT_PC_SAMPLE 
debg|decoder_swo.c:66->default_packet_handler(): Message 0, LIBSWO_PACKET_TYPE_OF 
debg|decoder_swo.c:66->default_packet_handler(): Message 0, LIBSWO_PACKET_TYPE_DWT_PC_SAMPLE 
debg|decoder_swo.c:66->default_packet_handler(): Message 0, LIBSWO_PACKET_TYPE_OF 
debg|decoder_swo.c:66->default_packet_handler(): Message 0, LIBSWO_PACKET_TYPE_DWT_PC_SAMPLE 
debg|decoder_swo.c:66->default_packet_handler(): Message 0, LIBSWO_PACKET_TYPE_OF 
debg|decoder_swo.c:66->default_packet_handler(): Message 0, LIBSWO_PACKET_TYPE_DWT_PC_SAMPLE 
debg|decoder_swo.c:66->default_packet_handler(): Message 0, LIBSWO_PACKET_TYPE_OF 
debg|decoder_swo.c:66->default_packet_handler(): Message 0, LIBSWO_PACKET_TYPE_DWT_PC_SAMPLE 
debg|decoder_swo.c:66->default_packet_handler(): Message 0, LIBSWO_PACKET_TYPE_OF 
debg|decoder_swo.c:66->default_packet_handler(): Message 0, LIBSWO_PACKET_TYPE_DWT_PC_SAMPLE 
debg|decoder_swo.c:66->default_packet_handler(): Message 0, LIBSWO_PACKET_TYPE_OF 
debg|decoder_swo.c:66->default_packet_handler(): Message 0, LIBSWO_PACKET_TYPE_DWT_PC_SAMPLE 
debg|decoder_swo.cwarn|processing.c:49->processing_data_out_default(): No callback defined yet
:66->default_packet_handler(): Message 0, LIBSWO_PACKET_TYPE_OF 
debg|decoder_swo.c:66->default_packet_handler(): Message 0, LIBSWO_PACKET_TYPE_DWT_PC_SAMPLE 
debg|decoder_swo.c:66->default_packet_handler(): Message 0, LIBSWO_PACKET_TYPE_OF 
debg|decoder_swo.c:66->default_packet_handler(): Message 0, LIBSWO_PACKET_TYPE_DWT_PC_SAMPLE 
debg|decoder_swo.c:66->default_packet_handler(): Message 0, LIBSWO_PACKET_TYPE_OF 
debg|decoder_swo.c:66->default_packet_handler(): Message 0, LIBSWO_PACKET_TYPE_DWT_PC_SAMPLE 
debg|decoder_swo.c:66->default_packet_handler(): Message 0, LIBSWO_PACKET_TYPE_OF 
debg|decoder_swo.c:66->default_packet_handler(): Message 0, LIBSWO_PACKET_TYPE_DWT_PC_SAMPLE 
debg|decoder_swo.c:66->default_packet_handler(): Message 0, LIBSWO_PACKET_TYPE_OF 
debg|decoder_swo.c:66->default_packet_handler(): Message 0, LIBSWO_PACKET_TYPE_DWT_PC_SAMPLE 
debg|decoder_swo.c:66->default_packet_handler(): Message 0, LIBSWO_PACKET_TYPE_OF 
debg|decoder_swo.c:66->default_packet_handler(): Message 0, LIBSWO_PACKET_TYPE_DWT_PC_SAMPLE 
debg|decoder_swo.c:66->default_packet_handler(): Message 0, LIBSWO_PACKET_TYPE_OF 
debg|decoder_swo.c:66->default_packet_handler(): Message 0, LIBSWO_PACKET_TYPE_DWT_PC_SAMPLE 
debg|decoder_swo.c:66->default_packet_handler(): Message 0, LIBSWO_PACKET_TYPE_OF 
debg|decoder_swo.c:66->default_packet_handler(): Message 0, LIBSWO_PACKET_TYPE_DWT_PC_SAMPLE 
debg|decoder_swo.c:66->default_packet_handler(): Message 0, LIBSWO_PACKET_TYPE_OF 
debg|decoder_swo.c:66->default_packet_handler(): Message 0, LIBSWO_PACKET_TYPE_DWT_PC_SAMPLE 
debg|decoder_swo.c:66->default_packet_handler(): Message 0, LIBSWO_PACKET_TYPE_OF 
debg|decoder_swo.c:214->decoder_swo_data_in(): decoded 21
debg|decoder_swo.c:216->decoder_swo_data_in(): total size decoded 840
debg|decoder_swo.c:217->decoder_swo_data_in(): Total number of decoded packet 123
debg|decoder_swo.c:239->decoder_swo_data_out(): Number of data received 840
debg|pkt_converter.c:594->pkt_convert(): Number of packet received 21
debg|decoder_swo.c:66->default_packet_handler(): Message 0, LIBSWO_PACKET_TYPE_DWT_PC_SAMPLE 
debg|decoder_swo.c:66->default_packet_handler(): Message 0, LIBSWO_PACKET_TYPE_OF 
debg|decoder_swo.c:66->default_packet_handler(): Message 0, LIBSWO_PACKET_TYPE_DWT_PC_SAMPLE 
debg|decoder_swo.c:66->default_packet_handler(): Message 0, LIBSWO_PACKET_TYPE_OF 
debg|decoder_swo.c:66->default_packet_handler(): Message 0, LIBSWO_PACKET_TYPE_DWT_PC_SAMPLE 
debg|decoder_swo.c:66->default_packet_handler(): Message 0, LIBSWO_PACKET_TYPE_OF 
debg|decoder_swo.c:66->default_packet_handler(): Message 0, LIBSWO_PACKET_TYPE_DWT_PC_SAMPLE 
debg|decoder_swo.c:66->default_packet_handler(): Message 0, LIBSWO_PACKET_TYPE_OF 
debg|decoder_swo.c:66->default_packet_handler(): Message 0, LIBSWO_PACKET_TYPE_DWT_PC_SAMPLE 
debg|decoder_swo.c:66->default_packet_handler(): Message 0, LIBSWO_PACKET_TYPE_OF 
debg|decoder_swo.c:66->default_packet_handler(): Message 0, LIBSWO_PACKET_TYPE_DWT_PC_SAMPLE 
debg|decoder_swo.c:66->default_packet_handler(): Message 0, LIBSWO_PACKET_TYPE_OF 
debg|decoder_swo.c:66->default_packet_handler(): Message 0, LIBSWO_PACKET_TYPE_DWT_PC_SAMPLE 
debg|decoder_swo.c:66->default_packet_handler(): Message 0, LIBSWO_PACKET_TYPE_OF 
debg|decoder_swo.c:66->default_packet_handler(): Message 0, LIBSWO_PACKET_TYPE_DWT_PC_SAMPLE 
debg|decoder_swo.c:66->default_packet_handler(): Message 0, LIBSWO_PACKET_TYPE_OF 
debg|decoder_swo.c:66->default_packet_handler(): Message 0, LIBSWO_PACKET_TYPE_DWT_PC_SAMPLE 
debg|decoder_swo.c:66->default_packet_handler(): Message 0, LIBSWO_PACKET_TYPE_OF 
debg|decoder_swo.c:66->default_packet_handler(): Message 0, LIBSWO_PACKET_TYPE_DWT_PC_SAMPLE 
debg|decoder_swo.c:66->default_packet_handler(): Message 0, LIBSWO_PACKET_TYPE_OF 
debg|decoder_swo.c:66->default_packet_handler(): Message 0, LIBSWO_PACKET_TYPE_DWT_PC_SAMPLE 
debg|decoder_swo.c:66->default_packet_handler(): Message 0, LIBSWO_PACKET_TYPE_OF 
debg|decoder_swo.c:66->default_packet_handler(): Message 0, LIBSWO_PACKET_TYPE_DWT_PC_SAMPLE 
debg|decoder_swo.c:66->default_packet_hanwarn|processing.c:49->processing_data_out_default(): No callback defined yet
dler(): Message 0, LIBSWO_PACKET_TYPE_OF 
debg|decoder_swo.c:66->default_packet_handler(): Message 0, LIBSWO_PACKET_TYPE_DWT_PC_SAMPLE 
debg|decoder_swo.c:66->default_packet_handler(): Message 0, LIBSWO_PACKET_TYPE_OF 
debg|decoder_swo.c:66->default_packet_handler(): Message 0, LIBSWO_PACKET_TYPE_DWT_PC_SAMPLE 
debg|decoder_swo.c:66->default_packet_handler(): Message 0, LIBSWO_PACKET_TYPE_OF 
debg|decoder_swo.c:66->default_packet_handler(): Message 0, LIBSWO_PACKET_TYPE_DWT_PC_SAMPLE 
debg|decoder_swo.c:66->default_packet_handler(): Message 0, LIBSWO_PACKET_TYPE_OF 
debg|decoder_swo.c:66->default_packet_handler(): Message 0, LIBSWO_PACKET_TYPE_DWT_PC_SAMPLE 
debg|decoder_swo.c:66->default_packet_handler(): Message 0, LIBSWO_PACKET_TYPE_OF 
debg|decoder_swo.c:66->default_packet_handler(): Message 0, LIBSWO_PACKET_TYPE_DWT_PC_SAMPLE 
debg|decoder_swo.c:66->default_packet_handler(): Message 0, LIBSWO_PACKET_TYPE_OF 
debg|decoder_swo.c:66->default_packet_handler(): Message 0, LIBSWO_PACKET_TYPE_DWT_PC_SAMPLE 
debg|decoder_swo.c:66->default_packet_handler(): Message 0, LIBSWO_PACKET_TYPE_OF 
debg|decoder_swo.c:66->default_packet_handler(): Message 0, LIBSWO_PACKET_TYPE_DWT_PC_SAMPLE 
debg|decoder_swo.c:66->default_packet_handler(): Message 0, LIBSWO_PACKET_TYPE_OF 
debg|decoder_swo.c:66->default_packet_handler(): Message 0, LIBSWO_PACKET_TYPE_DWT_PC_SAMPLE 
debg|decoder_swo.c:66->default_packet_handler(): Message 0, LIBSWO_PACKET_TYPE_OF 
debg|decoder_swo.c:66->default_packet_handler(): Message 0, LIBSWO_PACKET_TYPE_DWT_PC_SAMPLE 
debg|decoder_swo.c:66->default_packet_handler(): Message 0, LIBSWO_PACKET_TYPE_OF 
debg|decoder_swo.c:214->decoder_swo_data_in(): decoded 21
debg|decoder_swo.c:216->decoder_swo_data_in(): total size decoded 840
debg|decoder_swo.c:217->decoder_swo_data_in(): Total number of decoded packet 144
debg|decoder_swo.c:239->decoder_swo_data_out(): Number of data received 840
debg|pkt_converter.c:594->pkt_convert(): Number of packet received 21
debg|decoder_swo.c:66->default_packet_handler(): Message 0, LIBSWO_PACKET_TYPE_DWT_PC_SAMPLE 
debg|decoder_swo.c:66->default_packet_handler(): Message 0, LIBSWO_PACKET_TYPE_OF 
debg|decoder_swo.c:66->default_packet_handler(): Message 0, LIBSWO_PACKET_TYPE_DWT_PC_SAMPLE 
debg|decoder_swo.c:66->default_packet_handler(): Message 0, LIBSWO_PACKET_TYPE_OF 
debg|decoder_swo.c:66->default_packet_handler(): Message 0, LIBSWO_PACKET_TYPE_DWT_PC_SAMPLE 
debg|decoder_swo.c:66->default_packet_handler(): Message 0, LIBSWO_PACKET_TYPE_OF 
debg|decoder_swo.c:66->default_packet_handler(): Message 0, LIBSWO_PACKET_TYPE_DWT_PC_SAMPLE 
debg|decoder_swo.c:66->default_packet_handler(): Message 0, LIBSWO_PACKET_TYPE_OF 
debg|decoder_swo.c:66->default_packet_handler(): Message 0, LIBSWO_PACKET_TYPE_DWT_PC_SAMPLE 
debg|decoder_swo.c:66->default_packet_handler(): Message 0, LIBSWO_PACKET_TYPE_OF 
debg|decoder_swo.c:66->default_packet_handler(): Message 0, LIBSWO_PACKET_TYPE_DWT_PC_SAMPLE 
debg|decoder_swo.c:66->default_packet_handler(): Message 0, LIBSWO_PACKET_TYPE_OF 
debg|decoder_swo.c:66->default_packet_handler(): Message 0, LIBSWO_PACKET_TYPE_DWT_PC_SAMPLE 
debg|decoder_swo.c:66->default_packet_handler(): Message 0, LIBSWO_PACKET_TYPE_OF 
debg|decoder_swo.c:66->default_packet_handler(): Message 0, LIBSWO_PACKET_TYPE_DWT_PC_SAMPLE 
debg|decoder_swo.c:66->default_packet_handler(): Message 0, LIBSWO_PACKET_TYPE_OF 
debg|decoder_swo.c:66->default_packet_handler(): Message 0, LIBSWO_PACKET_TYPE_DWT_PC_SAMPLE 
debg|decoder_swo.c:66->default_packet_handler(): Message 0, LIBSWO_PACKET_TYPE_OF 
debg|decoder_swo.c:66->default_packet_handler(): Message 0, LIBSWO_PACKET_TYPE_DWT_PC_SAMPLE 
debg|decoder_swo.c:66->default_packet_handler(): Message 0, LIBSWO_PACKET_TYPE_OF 
debg|decoder_swo.c:66->default_packet_handler(): Message 0, LIBSWO_PACKET_TYPE_DWT_PC_SAMPLE 
debg|decoder_swo.c:66->default_packet_handler(): Message 0, LIBSWO_PACKET_TYPE_OF 
debg|decoder_swo.c:66->default_packet_handler(): Message 0, LIBSWO_PACKET_TYPE_DWT_PC_SAMPLE 
debg|decoder_swo.c:66->default_packet_handler(): Message 0, LIBSwarn|processing.c:49->processing_data_out_default(): No callback defined yet
WO_PACKET_TYPE_OF 
debg|decoder_swo.c:66->default_packet_handler(): Message 0, LIBSWO_PACKET_TYPE_DWT_PC_SAMPLE 
debg|decoder_swo.c:66->default_packet_handler(): Message 0, LIBSWO_PACKET_TYPE_OF 
debg|decoder_swo.c:66->default_packet_handler(): Message 0, LIBSWO_PACKET_TYPE_DWT_PC_SAMPLE 
debg|decoder_swo.c:66->default_packet_handler(): Message 0, LIBSWO_PACKET_TYPE_OF 
debg|decoder_swo.c:66->default_packet_handler(): Message 0, LIBSWO_PACKET_TYPE_DWT_PC_SAMPLE 
debg|decoder_swo.c:66->default_packet_handler(): Message 0, LIBSWO_PACKET_TYPE_OF 
debg|decoder_swo.c:66->default_packet_handler(): Message 0, LIBSWO_PACKET_TYPE_DWT_PC_SAMPLE 
debg|decoder_swo.c:66->default_packet_handler(): Message 0, LIBSWO_PACKET_TYPE_OF 
debg|decoder_swo.c:66->default_packet_handler(): Message 0, LIBSWO_PACKET_TYPE_DWT_PC_SAMPLE 
debg|decoder_swo.c:66->default_packet_handler(): Message 0, LIBSWO_PACKET_TYPE_OF 
debg|decoder_swo.c:66->default_packet_handler(): Message 0, LIBSWO_PACKET_TYPE_DWT_PC_SAMPLE 
debg|decoder_swo.c:66->default_packet_handler(): Message 0, LIBSWO_PACKET_TYPE_OF 
debg|decoder_swo.c:66->default_packet_handler(): Message 0, LIBSWO_PACKET_TYPE_DWT_PC_SAMPLE 
debg|decoder_swo.c:66->default_packet_handler(): Message 0, LIBSWO_PACKET_TYPE_OF 
debg|decoder_swo.c:66->default_packet_handler(): Message 0, LIBSWO_PACKET_TYPE_DWT_PC_SAMPLE 
debg|decoder_swo.c:66->default_packet_handler(): Message 0, LIBSWO_PACKET_TYPE_OF 
debg|decoder_swo.c:66->default_packet_handler(): Message 0, LIBSWO_PACKET_TYPE_DWT_PC_SAMPLE 
debg|decoder_swo.c:66->default_packet_handler(): Message 0, LIBSWO_PACKET_TYPE_OF 
debg|decoder_swo.c:66->default_packet_handler(): Message 0, LIBSWO_PACKET_TYPE_DWT_PC_SAMPLE 
debg|decoder_swo.c:214->decoder_swo_data_in(): decoded 22
debg|decoder_swo.c:216->decoder_swo_data_in(): total size decoded 880
debg|decoder_swo.c:217->decoder_swo_data_in(): Total number of decoded packet 166
debg|decoder_swo.c:239->decoder_swo_data_out(): Number of data received 880
debg|pkt_converter.c:594->pkt_convert(): Number of packet received 22
debg|decoder_swo.c:66->default_packet_handler(): Message 0, LIBSWO_PACKET_TYPE_OF 
debg|decoder_swo.c:66->default_packet_handler(): Message 0, LIBSWO_PACKET_TYPE_DWT_PC_SAMPLE 
debg|decoder_swo.c:66->default_packet_handler(): Message 0, LIBSWO_PACKET_TYPE_OF 
debg|decoder_swo.c:66->default_packet_handler(): Message 0, LIBSWO_PACKET_TYPE_DWT_PC_SAMPLE 
debg|decoder_swo.c:66->default_packet_handler(): Message 0, LIBSWO_PACKET_TYPE_OF 
debg|decoder_swo.c:66->default_packet_handler(): Message 0, LIBSWO_PACKET_TYPE_DWT_PC_SAMPLE 
debg|decoder_swo.c:66->default_packet_handler(): Message 0, LIBSWO_PACKET_TYPE_OF 
debg|decoder_swo.c:66->default_packet_handler(): Message 0, LIBSWO_PACKET_TYPE_DWT_PC_SAMPLE 
debg|decoder_swo.c:66->default_packet_handler(): Message 0, LIBSWO_PACKET_TYPE_OF 
debg|decoder_swo.c:66->default_packet_handler(): Message 0, LIBSWO_PACKET_TYPE_DWT_PC_SAMPLE 
debg|decoder_swo.c:66->default_packet_handler(): Message 0, LIBSWO_PACKET_TYPE_OF 
debg|decoder_swo.c:66->default_packet_handler(): Message 0, LIBSWO_PACKET_TYPE_DWT_PC_SAMPLE 
debg|decoder_swo.c:66->default_packet_handler(): Message 0, LIBSWO_PACKET_TYPE_OF 
debg|decoder_swo.c:66->default_packet_handler(): Message 0, LIBSWO_PACKET_TYPE_DWT_PC_SAMPLE 
debg|decoder_swo.c:66->default_packet_handler(): Message 0, LIBSWO_PACKET_TYPE_OF 
debg|decoder_swo.c:66->default_packet_handler(): Message 0, LIBSWO_PACKET_TYPE_DWT_PC_SAMPLE 
debg|decoder_swo.c:66->default_packet_handler(): Message 0, LIBSWO_PACKET_TYPE_OF 
debg|decoder_swo.c:66->default_packet_handler(): Message 0, LIBSWO_PACKET_TYPE_DWT_PC_SAMPLE 
debg|decoder_swo.c:66->default_packet_handler(): Message 0, LIBSWO_PACKET_TYPE_OF 
debg|decoder_swo.c:66->default_packet_handler(): Message 0, LIBSWO_PACKET_TYPE_DWT_PC_SAMPLE 
debg|decoder_swo.c:66->default_packet_handler(): Message 0, LIBSWO_PACKET_TYPE_OF 
debg|decoder_swo.c:66->default_packet_handler(): Message 0, LIBSWO_PACKET_TYPE_DWT_PC_SAMPLE 
debg|decoder_swo.c:66->default_packet_handler(): Message 0, LIBSWO_PACKET_TYPE_OF 
debgwarn|processing.c:49->processing_data_out_default(): No callback defined yet
|decoder_swo.c:66->default_packet_handler(): Message 0, LIBSWO_PACKET_TYPE_DWT_PC_SAMPLE 
debg|decoder_swo.c:66->default_packet_handler(): Message 0, LIBSWO_PACKET_TYPE_OF 
debg|decoder_swo.c:66->default_packet_handler(): Message 0, LIBSWO_PACKET_TYPE_DWT_PC_SAMPLE 
debg|decoder_swo.c:66->default_packet_handler(): Message 0, LIBSWO_PACKET_TYPE_OF 
debg|decoder_swo.c:66->default_packet_handler(): Message 0, LIBSWO_PACKET_TYPE_DWT_PC_SAMPLE 
debg|decoder_swo.c:66->default_packet_handler(): Message 0, LIBSWO_PACKET_TYPE_OF 
debg|decoder_swo.c:66->default_packet_handler(): Message 0, LIBSWO_PACKET_TYPE_DWT_PC_SAMPLE 
debg|decoder_swo.c:66->default_packet_handler(): Message 0, LIBSWO_PACKET_TYPE_OF 
debg|decoder_swo.c:66->default_packet_handler(): Message 0, LIBSWO_PACKET_TYPE_DWT_PC_SAMPLE 
debg|decoder_swo.c:66->default_packet_handler(): Message 0, LIBSWO_PACKET_TYPE_OF 
debg|decoder_swo.c:66->default_packet_handler(): Message 0, LIBSWO_PACKET_TYPE_DWT_PC_SAMPLE 
debg|decoder_swo.c:66->default_packet_handler(): Message 0, LIBSWO_PACKET_TYPE_OF 
debg|decoder_swo.c:66->default_packet_handler(): Message 0, LIBSWO_PACKET_TYPE_DWT_PC_SAMPLE 
debg|decoder_swo.c:66->default_packet_handler(): Message 0, LIBSWO_PACKET_TYPE_OF 
debg|decoder_swo.c:66->default_packet_handler(): Message 0, LIBSWO_PACKET_TYPE_DWT_PC_SAMPLE 
debg|decoder_swo.c:66->default_packet_handler(): Message 0, LIBSWO_PACKET_TYPE_OF 
debg|decoder_swo.c:66->default_packet_handler(): Message 0, LIBSWO_PACKET_TYPE_DWT_PC_SAMPLE 
debg|decoder_swo.c:66->default_packet_handler(): Message 0, LIBSWO_PACKET_TYPE_OF 
debg|decoder_swo.c:66->default_packet_handler(): Message 0, LIBSWO_PACKET_TYPE_DWT_PC_SAMPLE 
debg|decoder_swo.c:66->default_packet_handler(): Message 0, LIBSWO_PACKET_TYPE_OF 
debg|decoder_swo.c:214->decoder_swo_data_in(): decoded 21
debg|decoder_swo.c:216->decoder_swo_data_in(): total size decoded 840
debg|decoder_swo.c:217->decoder_swo_data_in(): Total number of decoded packet 187
debg|decoder_swo.c:239->decoder_swo_data_out(): Number of data received 840
debg|pkt_converter.c:594->pkt_convert(): Number of packet received 21
debg|decoder_swo.c:66->default_packet_handler(): Message 0, LIBSWO_PACKET_TYPE_DWT_PC_SAMPLE 
debg|decoder_swo.c:66->default_packet_handler(): Message 0, LIBSWO_PACKET_TYPE_OF 
debg|decoder_swo.c:66->default_packet_handler(): Message 0, LIBSWO_PACKET_TYPE_DWT_PC_SAMPLE 
debg|decoder_swo.c:66->default_packet_handler(): Message 0, LIBSWO_PACKET_TYPE_OF 
debg|decoder_swo.c:66->default_packet_handler(): Message 0, LIBSWO_PACKET_TYPE_DWT_PC_SAMPLE 
debg|decoder_swo.c:66->default_packet_handler(): Message 0, LIBSWO_PACKET_TYPE_OF 
debg|decoder_swo.c:66->default_packet_handler(): Message 0, LIBSWO_PACKET_TYPE_DWT_PC_SAMPLE 
debg|decoder_swo.c:66->default_packet_handler(): Message 0, LIBSWO_PACKET_TYPE_OF 
debg|decoder_swo.c:66->default_packet_handler(): Message 0, LIBSWO_PACKET_TYPE_DWT_PC_SAMPLE 
debg|decoder_swo.c:66->default_packet_handler(): Message 0, LIBSWO_PACKET_TYPE_OF 
debg|decoder_swo.c:66->default_packet_handler(): Message 0, LIBSWO_PACKET_TYPE_DWT_PC_SAMPLE 
debg|decoder_swo.c:66->default_packet_handler(): Message 0, LIBSWO_PACKET_TYPE_OF 
debg|decoder_swo.c:66->default_packet_handler(): Message 0, LIBSWO_PACKET_TYPE_DWT_PC_SAMPLE 
debg|decoder_swo.c:66->default_packet_handler(): Message 0, LIBSWO_PACKET_TYPE_OF 
debg|decoder_swo.c:66->default_packet_handler(): Message 0, LIBSWO_PACKET_TYPE_DWT_PC_SAMPLE 
debg|decoder_swo.c:66->default_packet_handler(): Message 0, LIBSWO_PACKET_TYPE_OF 
debg|decoder_swo.c:66->default_packet_handler(): Message 0, LIBSWO_PACKET_TYPE_DWT_PC_SAMPLE 
debg|decoder_swo.c:66->default_packet_handler(): Message 0, LIBSWO_PACKET_TYPE_OF 
debg|decoder_swo.c:66->default_packet_handler(): Message 0, LIBSWO_PACKET_TYPE_DWT_PC_SAMPLE 
debg|decoder_swo.c:66->default_packet_handler(): Message 0, LIBSWO_PACKET_TYPE_OF 
debg|decoder_swo.c:66->default_packet_handler(): Message 0, LIBSWO_PACKET_TYPE_DWT_PC_SAMPLE 
debg|decoder_swo.c:66->default_packet_handler(): Message 0, LIBSWO_PACKET_TYPE_OF 
debg|decoder_swo.c:66->defawarn|processing.c:49->processing_data_out_default(): No callback defined yet
ult_packet_handler(): Message 0, LIBSWO_PACKET_TYPE_DWT_PC_SAMPLE 
debg|decoder_swo.c:66->default_packet_handler(): Message 0, LIBSWO_PACKET_TYPE_OF 
debg|decoder_swo.c:66->default_packet_handler(): Message 0, LIBSWO_PACKET_TYPE_DWT_PC_SAMPLE 
debg|decoder_swo.c:66->default_packet_handler(): Message 0, LIBSWO_PACKET_TYPE_OF 
debg|decoder_swo.c:66->default_packet_handler(): Message 0, LIBSWO_PACKET_TYPE_DWT_PC_SAMPLE 
debg|decoder_swo.c:66->default_packet_handler(): Message 0, LIBSWO_PACKET_TYPE_OF 
debg|decoder_swo.c:66->default_packet_handler(): Message 0, LIBSWO_PACKET_TYPE_DWT_PC_SAMPLE 
debg|decoder_swo.c:66->default_packet_handler(): Message 0, LIBSWO_PACKET_TYPE_OF 
debg|decoder_swo.c:66->default_packet_handler(): Message 0, LIBSWO_PACKET_TYPE_DWT_PC_SAMPLE 
debg|decoder_swo.c:66->default_packet_handler(): Message 0, LIBSWO_PACKET_TYPE_OF 
debg|decoder_swo.c:66->default_packet_handler(): Message 0, LIBSWO_PACKET_TYPE_DWT_PC_SAMPLE 
debg|decoder_swo.c:66->default_packet_handler(): Message 0, LIBSWO_PACKET_TYPE_OF 
debg|decoder_swo.c:66->default_packet_handler(): Message 0, LIBSWO_PACKET_TYPE_DWT_PC_SAMPLE 
debg|decoder_swo.c:66->default_packet_handler(): Message 0, LIBSWO_PACKET_TYPE_OF 
debg|decoder_swo.c:66->default_packet_handler(): Message 0, LIBSWO_PACKET_TYPE_DWT_PC_SAMPLE 
debg|decoder_swo.c:66->default_packet_handler(): Message 0, LIBSWO_PACKET_TYPE_OF 
debg|decoder_swo.c:66->default_packet_handler(): Message 0, LIBSWO_PACKET_TYPE_DWT_PC_SAMPLE 
debg|decoder_swo.c:66->default_packet_handler(): Message 0, LIBSWO_PACKET_TYPE_OF 
debg|decoder_swo.c:66->default_packet_handler(): Message 0, LIBSWO_PACKET_TYPE_DWT_PC_SAMPLE 
debg|decoder_swo.c:66->default_packet_handler(): Message 0, LIBSWO_PACKET_TYPE_OF 
debg|decoder_swo.c:214->decoder_swo_data_in(): decoded 21
debg|decoder_swo.c:216->decoder_swo_data_in(): total size decoded 840
debg|decoder_swo.c:217->decoder_swo_data_in(): Total number of decoded packet 208
debg|decoder_swo.c:239->decoder_swo_data_out(): Number of data received 840
debg|pkt_converter.c:594->pkt_convert(): Number of packet received 21
debg|decoder_swo.c:66->default_packet_handler(): Message 0, LIBSWO_PACKET_TYPE_DWT_PC_SAMPLE 
debg|decoder_swo.c:66->default_packet_handler(): Message 0, LIBSWO_PACKET_TYPE_OF 
debg|decoder_swo.c:66->default_packet_handler(): Message 0, LIBSWO_PACKET_TYPE_DWT_PC_SAMPLE 
debg|decoder_swo.c:66->default_packet_handler(): Message 0, LIBSWO_PACKET_TYPE_OF 
debg|decoder_swo.c:66->default_packet_handler(): Message 0, LIBSWO_PACKET_TYPE_DWT_PC_SAMPLE 
debg|decoder_swo.c:66->default_packet_handler(): Message 0, LIBSWO_PACKET_TYPE_OF 
debg|decoder_swo.c:66->default_packet_handler(): Message 0, LIBSWO_PACKET_TYPE_DWT_PC_SAMPLE 
debg|decoder_swo.c:66->default_packet_handler(): Message 0, LIBSWO_PACKET_TYPE_OF 
debg|decoder_swo.c:66->default_packet_handler(): Message 0, LIBSWO_PACKET_TYPE_DWT_PC_SAMPLE 
debg|decoder_swo.c:66->default_packet_handler(): Message 0, LIBSWO_PACKET_TYPE_OF 
debg|decoder_swo.c:66->default_packet_handler(): Message 0, LIBSWO_PACKET_TYPE_DWT_PC_SAMPLE 
debg|decoder_swo.c:66->default_packet_handler(): Message 0, LIBSWO_PACKET_TYPE_OF 
debg|decoder_swo.c:66->default_packet_handler(): Message 0, LIBSWO_PACKET_TYPE_DWT_PC_SAMPLE 
debg|decoder_swo.c:66->default_packet_handler(): Message 0, LIBSWO_PACKET_TYPE_OF 
debg|decoder_swo.c:66->default_packet_handler(): Message 0, LIBSWO_PACKET_TYPE_DWT_PC_SAMPLE 
debg|decoder_swo.c:66->default_packet_handler(): Message 0, LIBSWO_PACKET_TYPE_OF 
debg|decoder_swo.c:66->default_packet_handler(): Message 0, LIBSWO_PACKET_TYPE_DWT_PC_SAMPLE 
debg|decoder_swo.c:66->default_packet_handler(): Message 0, LIBSWO_PACKET_TYPE_OF 
debg|decoder_swo.c:66->default_packet_handler(): Message 0, LIBSWO_PACKET_TYPE_DWT_PC_SAMPLE 
debg|decoder_swo.c:66->default_packet_handler(): Message 0, LIBSWO_PACKET_TYPE_OF 
debg|decoder_swo.c:66->default_packet_handler(): Message 0, LIBSWO_PACKET_TYPE_DWT_PC_SAMPLE 
debg|decoder_swo.c:66->default_packet_handler(): Message 0, LIBSWO_PACKET_TYPE_OF 
debg|decoder_swo.c:66->default_packet_handler(): Mwarn|processing.c:49->processing_data_out_default(): No callback defined yet
essage 0, LIBSWO_PACKET_TYPE_DWT_PC_SAMPLE 
debg|decoder_swo.c:66->default_packet_handler(): Message 0, LIBSWO_PACKET_TYPE_OF 
debg|decoder_swo.c:66->default_packet_handler(): Message 0, LIBSWO_PACKET_TYPE_DWT_PC_SAMPLE 
debg|decoder_swo.c:66->default_packet_handler(): Message 0, LIBSWO_PACKET_TYPE_OF 
debg|decoder_swo.c:66->default_packet_handler(): Message 0, LIBSWO_PACKET_TYPE_DWT_PC_SAMPLE 
debg|decoder_swo.c:66->default_packet_handler(): Message 0, LIBSWO_PACKET_TYPE_OF 
debg|decoder_swo.c:66->default_packet_handler(): Message 0, LIBSWO_PACKET_TYPE_DWT_PC_SAMPLE 
debg|decoder_swo.c:66->default_packet_handler(): Message 0, LIBSWO_PACKET_TYPE_OF 
debg|decoder_swo.c:66->default_packet_handler(): Message 0, LIBSWO_PACKET_TYPE_DWT_PC_SAMPLE 
debg|decoder_swo.c:66->default_packet_handler(): Message 0, LIBSWO_PACKET_TYPE_OF 
debg|decoder_swo.c:66->default_packet_handler(): Message 0, LIBSWO_PACKET_TYPE_DWT_PC_SAMPLE 
debg|decoder_swo.c:66->default_packet_handler(): Message 0, LIBSWO_PACKET_TYPE_OF 
debg|decoder_swo.c:66->default_packet_handler(): Message 0, LIBSWO_PACKET_TYPE_DWT_PC_SAMPLE 
debg|decoder_swo.c:66->default_packet_handler(): Message 0, LIBSWO_PACKET_TYPE_OF 
debg|decoder_swo.c:66->default_packet_handler(): Message 0, LIBSWO_PACKET_TYPE_DWT_PC_SAMPLE 
debg|decoder_swo.c:66->default_packet_handler(): Message 0, LIBSWO_PACKET_TYPE_OF 
debg|decoder_swo.c:66->default_packet_handler(): Message 0, LIBSWO_PACKET_TYPE_DWT_PC_SAMPLE 
debg|decoder_swo.c:66->default_packet_handler(): Message 0, LIBSWO_PACKET_TYPE_OF 
debg|decoder_swo.c:66->default_packet_handler(): Message 0, LIBSWO_PACKET_TYPE_DWT_PC_SAMPLE 
debg|decoder_swo.c:66->default_packet_handler(): Message 0, LIBSWO_PACKET_TYPE_OF 
debg|decoder_swo.c:66->default_packet_handler(): Message 0, LIBSWO_PACKET_TYPE_DWT_PC_SAMPLE 
debg|decoder_swo.c:214->decoder_swo_data_in(): decoded 22
debg|decoder_swo.c:216->decoder_swo_data_in(): total size decoded 880
debg|decoder_swo.c:217->decoder_swo_data_in(): Total number of decoded packet 230
debg|decoder_swo.c:239->decoder_swo_data_out(): Number of data received 880
debg|pkt_converter.c:594->pkt_convert(): Number of packet received 22
debg|decoder_swo.c:66->default_packet_handler(): Message 0, LIBSWO_PACKET_TYPE_OF 
debg|decoder_swo.c:66->default_packet_handler(): Message 0, LIBSWO_PACKET_TYPE_DWT_PC_SAMPLE 
debg|decoder_swo.c:66->default_packet_handler(): Message 0, LIBSWO_PACKET_TYPE_OF 
debg|decoder_swo.c:66->default_packet_handler(): Message 0, LIBSWO_PACKET_TYPE_DWT_PC_SAMPLE 
debg|decoder_swo.c:66->default_packet_handler(): Message 0, LIBSWO_PACKET_TYPE_OF 
debg|decoder_swo.c:66->default_packet_handler(): Message 0, LIBSWO_PACKET_TYPE_DWT_PC_SAMPLE 
debg|decoder_swo.c:66->default_packet_handler(): Message 0, LIBSWO_PACKET_TYPE_OF 
debg|decoder_swo.c:66->default_packet_handler(): Message 0, LIBSWO_PACKET_TYPE_DWT_PC_SAMPLE 
debg|decoder_swo.c:66->default_packet_handler(): Message 0, LIBSWO_PACKET_TYPE_OF 
debg|decoder_swo.c:66->default_packet_handler(): Message 0, LIBSWO_PACKET_TYPE_DWT_PC_SAMPLE 
debg|decoder_swo.c:66->default_packet_handler(): Message 0, LIBSWO_PACKET_TYPE_OF 
debg|decoder_swo.c:66->default_packet_handler(): Message 0, LIBSWO_PACKET_TYPE_DWT_PC_SAMPLE 
debg|decoder_swo.c:66->default_packet_handler(): Message 0, LIBSWO_PACKET_TYPE_OF 
debg|decoder_swo.c:66->default_packet_handler(): Message 0, LIBSWO_PACKET_TYPE_DWT_PC_SAMPLE 
debg|decoder_swo.c:66->default_packet_handler(): Message 0, LIBSWO_PACKET_TYPE_OF 
debg|decoder_swo.c:66->default_packet_handler(): Message 0, LIBSWO_PACKET_TYPE_DWT_PC_SAMPLE 
debg|decoder_swo.c:66->default_packet_handler(): Message 0, LIBSWO_PACKET_TYPE_OF 
debg|decoder_swo.c:66->default_packet_handler(): Message 0, LIBSWO_PACKET_TYPE_DWT_PC_SAMPLE 
debg|decoder_swo.c:66->default_packet_handler(): Message 0, LIBSWO_PACKET_TYPE_OF 
debg|decoder_swo.c:66->default_packet_handler(): Message 0, LIBSWO_PACKET_TYPE_DWT_PC_SAMPLE 
debg|decoder_swo.c:66->default_packet_handler(): Message 0, LIBSWO_PACKET_TYPE_OF 
debg|decoder_swo.c:66->default_packet_handler(): Message 0, LIBSWO_PACKETwarn|processing.c:49->processing_data_out_default(): No callback defined yet
_TYPE_DWT_PC_SAMPLE 
debg|decoder_swo.c:66->default_packet_handler(): Message 0, LIBSWO_PACKET_TYPE_OF 
debg|decoder_swo.c:66->default_packet_handler(): Message 0, LIBSWO_PACKET_TYPE_DWT_PC_SAMPLE 
debg|decoder_swo.c:66->default_packet_handler(): Message 0, LIBSWO_PACKET_TYPE_OF 
debg|decoder_swo.c:66->default_packet_handler(): Message 0, LIBSWO_PACKET_TYPE_DWT_PC_SAMPLE 
debg|decoder_swo.c:66->default_packet_handler(): Message 0, LIBSWO_PACKET_TYPE_OF 
debg|decoder_swo.c:66->default_packet_handler(): Message 0, LIBSWO_PACKET_TYPE_DWT_PC_SAMPLE 
debg|decoder_swo.c:66->default_packet_handler(): Message 0, LIBSWO_PACKET_TYPE_OF 
debg|decoder_swo.c:66->default_packet_handler(): Message 0, LIBSWO_PACKET_TYPE_DWT_PC_SAMPLE 
debg|decoder_swo.c:66->default_packet_handler(): Message 0, LIBSWO_PACKET_TYPE_OF 
debg|decoder_swo.c:66->default_packet_handler(): Message 0, LIBSWO_PACKET_TYPE_DWT_PC_SAMPLE 
debg|decoder_swo.c:66->default_packet_handler(): Message 0, LIBSWO_PACKET_TYPE_OF 
debg|decoder_swo.c:66->default_packet_handler(): Message 0, LIBSWO_PACKET_TYPE_DWT_PC_SAMPLE 
debg|decoder_swo.c:66->default_packet_handler(): Message 0, LIBSWO_PACKET_TYPE_OF 
debg|decoder_swo.c:66->default_packet_handler(): Message 0, LIBSWO_PACKET_TYPE_DWT_PC_SAMPLE 
debg|decoder_swo.c:66->default_packet_handler(): Message 0, LIBSWO_PACKET_TYPE_OF 
debg|decoder_swo.c:66->default_packet_handler(): Message 0, LIBSWO_PACKET_TYPE_DWT_PC_SAMPLE 
debg|decoder_swo.c:66->default_packet_handler(): Message 0, LIBSWO_PACKET_TYPE_OF 
debg|decoder_swo.c:66->default_packet_handler(): Message 0, LIBSWO_PACKET_TYPE_DWT_PC_SAMPLE 
debg|decoder_swo.c:66->default_packet_handler(): Message 0, LIBSWO_PACKET_TYPE_OF 
debg|decoder_swo.c:66->default_packet_handler(): Message 0, LIBSWO_PACKET_TYPE_DWT_PC_SAMPLE 
debg|decoder_swo.c:66->default_packet_handler(): Message 0, LIBSWO_PACKET_TYPE_OF 
debg|decoder_swo.c:214->decoder_swo_data_in(): decoded 21
debg|decoder_swo.c:216->decoder_swo_data_in(): total size decoded 840
debg|decoder_swo.c:217->decoder_swo_data_in(): Total number of decoded packet 251
debg|decoder_swo.c:239->decoder_swo_data_out(): Number of data received 840
debg|pkt_converter.c:594->pkt_convert(): Number of packet received 21
debg|decoder_swo.c:66->default_packet_handler(): Message 0, LIBSWO_PACKET_TYPE_DWT_PC_SAMPLE 
debg|decoder_swo.c:66->default_packet_handler(): Message 0, LIBSWO_PACKET_TYPE_OF 
debg|decoder_swo.c:66->default_packet_handler(): Message 0, LIBSWO_PACKET_TYPE_DWT_PC_SAMPLE 
debg|decoder_swo.c:66->default_packet_handler(): Message 0, LIBSWO_PACKET_TYPE_OF 
debg|decoder_swo.c:66->default_packet_handler(): Message 0, LIBSWO_PACKET_TYPE_DWT_PC_SAMPLE 
debg|decoder_swo.c:66->default_packet_handler(): Message 0, LIBSWO_PACKET_TYPE_OF 
debg|decoder_swo.c:66->default_packet_handler(): Message 0, LIBSWO_PACKET_TYPE_DWT_PC_SAMPLE 
debg|decoder_swo.c:66->default_packet_handler(): Message 0, LIBSWO_PACKET_TYPE_OF 
debg|decoder_swo.c:66->default_packet_handler(): Message 0, LIBSWO_PACKET_TYPE_DWT_PC_SAMPLE 
debg|decoder_swo.c:66->default_packet_handler(): Message 0, LIBSWO_PACKET_TYPE_OF 
debg|decoder_swo.c:66->default_packet_handler(): Message 0, LIBSWO_PACKET_TYPE_DWT_PC_SAMPLE 
debg|decoder_swo.c:66->default_packet_handler(): Message 0, LIBSWO_PACKET_TYPE_OF 
debg|decoder_swo.c:66->default_packet_handler(): Message 0, LIBSWO_PACKET_TYPE_DWT_PC_SAMPLE 
debg|decoder_swo.c:66->default_packet_handler(): Message 0, LIBSWO_PACKET_TYPE_OF 
debg|decoder_swo.c:66->default_packet_handler(): Message 0, LIBSWO_PACKET_TYPE_DWT_PC_SAMPLE 
debg|decoder_swo.c:66->default_packet_handler(): Message 0, LIBSWO_PACKET_TYPE_OF 
debg|decoder_swo.c:66->default_packet_handler(): Message 0, LIBSWO_PACKET_TYPE_DWT_PC_SAMPLE 
debg|decoder_swo.c:66->default_packet_handler(): Message 0, LIBSWO_PACKET_TYPE_OF 
debg|decoder_swo.c:66->default_packet_handler(): Message 0, LIBSWO_PACKET_TYPE_DWT_PC_SAMPLE 
debg|decoder_swo.c:66->default_packet_handler(): Message 0, LIBSWO_PACKET_TYPE_OF 
debg|decoder_swo.c:66->default_packet_handler(): Message 0, LIBSWO_PACKET_TYPE_DWT_PC_SAMPLE 
dewarn|processing.c:49->processing_data_out_default(): No callback defined yet
bg|decoder_swo.c:66->default_packet_handler(): Message 0, LIBSWO_PACKET_TYPE_OF 
debg|decoder_swo.c:66->default_packet_handler(): Message 0, LIBSWO_PACKET_TYPE_DWT_PC_SAMPLE 
debg|decoder_swo.c:66->default_packet_handler(): Message 0, LIBSWO_PACKET_TYPE_OF 
debg|decoder_swo.c:66->default_packet_handler(): Message 0, LIBSWO_PACKET_TYPE_DWT_PC_SAMPLE 
debg|decoder_swo.c:66->default_packet_handler(): Message 0, LIBSWO_PACKET_TYPE_OF 
debg|decoder_swo.c:66->default_packet_handler(): Message 0, LIBSWO_PACKET_TYPE_DWT_PC_SAMPLE 
debg|decoder_swo.c:66->default_packet_handler(): Message 0, LIBSWO_PACKET_TYPE_OF 
debg|decoder_swo.c:66->default_packet_handler(): Message 0, LIBSWO_PACKET_TYPE_DWT_PC_SAMPLE 
debg|decoder_swo.c:66->default_packet_handler(): Message 0, LIBSWO_PACKET_TYPE_OF 
debg|decoder_swo.c:66->default_packet_handler(): Message 0, LIBSWO_PACKET_TYPE_DWT_PC_SAMPLE 
debg|decoder_swo.c:66->default_packet_handler(): Message 0, LIBSWO_PACKET_TYPE_OF 
debg|decoder_swo.c:66->default_packet_handler(): Message 0, LIBSWO_PACKET_TYPE_DWT_PC_SAMPLE 
debg|decoder_swo.c:66->default_packet_handler(): Message 0, LIBSWO_PACKET_TYPE_OF 
debg|decoder_swo.c:66->default_packet_handler(): Message 0, LIBSWO_PACKET_TYPE_DWT_PC_SAMPLE 
debg|decoder_swo.c:66->default_packet_handler(): Message 0, LIBSWO_PACKET_TYPE_OF 
debg|decoder_swo.c:66->default_packet_handler(): Message 0, LIBSWO_PACKET_TYPE_DWT_PC_SAMPLE 
debg|decoder_swo.c:66->default_packet_handler(): Message 0, LIBSWO_PACKET_TYPE_OF 
debg|decoder_swo.c:66->default_packet_handler(): Message 0, LIBSWO_PACKET_TYPE_DWT_PC_SAMPLE 
debg|decoder_swo.c:66->default_packet_handler(): Message 0, LIBSWO_PACKET_TYPE_OF 
debg|decoder_swo.c:66->default_packet_handler(): Message 0, LIBSWO_PACKET_TYPE_DWT_PC_SAMPLE 
debg|decoder_swo.c:66->default_packet_handler(): Message 0, LIBSWO_PACKET_TYPE_OF 
debg|decoder_swo.c:214->decoder_swo_data_in(): decoded 21
debg|decoder_swo.c:216->decoder_swo_data_in(): total size decoded 840
debg|decoder_swo.c:217->decoder_swo_data_in(): Total number of decoded packet 272
debg|decoder_swo.c:239->decoder_swo_data_out(): Number of data received 840
debg|pkt_converter.c:594->pkt_convert(): Number of packet received 21
debg|decoder_swo.c:66->default_packet_handler(): Message 0, LIBSWO_PACKET_TYPE_DWT_PC_SAMPLE 
debg|decoder_swo.c:66->default_packet_handler(): Message 0, LIBSWO_PACKET_TYPE_OF 
debg|decoder_swo.c:66->default_packet_handler(): Message 0, LIBSWO_PACKET_TYPE_DWT_PC_SAMPLE 
debg|decoder_swo.c:66->default_packet_handler(): Message 0, LIBSWO_PACKET_TYPE_OF 
debg|decoder_swo.c:66->default_packet_handler(): Message 0, LIBSWO_PACKET_TYPE_DWT_PC_SAMPLE 
debg|decoder_swo.c:66->default_packet_handler(): Message 0, LIBSWO_PACKET_TYPE_OF 
debg|decoder_swo.c:66->default_packet_handler(): Message 0, LIBSWO_PACKET_TYPE_DWT_PC_SAMPLE 
debg|decoder_swo.c:66->default_packet_handler(): Message 0, LIBSWO_PACKET_TYPE_OF 
debg|decoder_swo.c:66->default_packet_handler(): Message 0, LIBSWO_PACKET_TYPE_DWT_PC_SAMPLE 
debg|decoder_swo.c:66->default_packet_handler(): Message 0, LIBSWO_PACKET_TYPE_OF 
debg|decoder_swo.c:66->default_packet_handler(): Message 0, LIBSWO_PACKET_TYPE_DWT_PC_SAMPLE 
debg|decoder_swo.c:66->default_packet_handler(): Message 0, LIBSWO_PACKET_TYPE_OF 
debg|decoder_swo.c:66->default_packet_handler(): Message 0, LIBSWO_PACKET_TYPE_DWT_PC_SAMPLE 
debg|decoder_swo.c:66->default_packet_handler(): Message 0, LIBSWO_PACKET_TYPE_OF 
debg|decoder_swo.c:66->default_packet_handler(): Message 0, LIBSWO_PACKET_TYPE_DWT_PC_SAMPLE 
debg|decoder_swo.c:66->default_packet_handler(): Message 0, LIBSWO_PACKET_TYPE_OF 
debg|decoder_swo.c:66->default_packet_handler(): Message 0, LIBSWO_PACKET_TYPE_DWT_PC_SAMPLE 
debg|decoder_swo.c:66->default_packet_handler(): Message 0, LIBSWO_PACKET_TYPE_OF 
debg|decoder_swo.c:66->default_packet_handler(): Message 0, LIBSWO_PACKET_TYPE_DWT_PC_SAMPLE 
debg|decoder_swo.c:66->default_packet_handler(): Message 0, LIBSWO_PACKET_TYPE_OF 
debg|decoder_swo.c:66->default_packet_handler(): Message 0, LIBSWO_PACKET_TYPE_DWT_PC_SAMPLE 
debg|decoder_swo.c:66->dewarn|processing.c:49->processing_data_out_default(): No callback defined yet
fault_packet_handler(): Message 0, LIBSWO_PACKET_TYPE_OF 
debg|decoder_swo.c:66->default_packet_handler(): Message 0, LIBSWO_PACKET_TYPE_DWT_PC_SAMPLE 
debg|decoder_swo.c:66->default_packet_handler(): Message 0, LIBSWO_PACKET_TYPE_OF 
debg|decoder_swo.c:66->default_packet_handler(): Message 0, LIBSWO_PACKET_TYPE_DWT_PC_SAMPLE 
debg|decoder_swo.c:66->default_packet_handler(): Message 0, LIBSWO_PACKET_TYPE_OF 
debg|decoder_swo.c:66->default_packet_handler(): Message 0, LIBSWO_PACKET_TYPE_DWT_PC_SAMPLE 
debg|decoder_swo.c:66->default_packet_handler(): Message 0, LIBSWO_PACKET_TYPE_OF 
debg|decoder_swo.c:66->default_packet_handler(): Message 0, LIBSWO_PACKET_TYPE_DWT_PC_SAMPLE 
debg|decoder_swo.c:66->default_packet_handler(): Message 0, LIBSWO_PACKET_TYPE_OF 
debg|decoder_swo.c:66->default_packet_handler(): Message 0, LIBSWO_PACKET_TYPE_DWT_PC_SAMPLE 
debg|decoder_swo.c:66->default_packet_handler(): Message 0, LIBSWO_PACKET_TYPE_OF 
debg|decoder_swo.c:66->default_packet_handler(): Message 0, LIBSWO_PACKET_TYPE_DWT_PC_SAMPLE 
debg|decoder_swo.c:66->default_packet_handler(): Message 0, LIBSWO_PACKET_TYPE_OF 
debg|decoder_swo.c:66->default_packet_handler(): Message 0, LIBSWO_PACKET_TYPE_DWT_PC_SAMPLE 
debg|decoder_swo.c:66->default_packet_handler(): Message 0, LIBSWO_PACKET_TYPE_OF 
debg|decoder_swo.c:66->default_packet_handler(): Message 0, LIBSWO_PACKET_TYPE_DWT_PC_SAMPLE 
debg|decoder_swo.c:66->default_packet_handler(): Message 0, LIBSWO_PACKET_TYPE_OF 
debg|decoder_swo.c:66->default_packet_handler(): Message 0, LIBSWO_PACKET_TYPE_DWT_PC_SAMPLE 
debg|decoder_swo.c:66->default_packet_handler(): Message 0, LIBSWO_PACKET_TYPE_OF 
debg|decoder_swo.c:66->default_packet_handler(): Message 0, LIBSWO_PACKET_TYPE_DWT_PC_SAMPLE 
debg|decoder_swo.c:66->default_packet_handler(): Message 0, LIBSWO_PACKET_TYPE_OF 
debg|decoder_swo.c:66->default_packet_handler(): Message 0, LIBSWO_PACKET_TYPE_DWT_PC_SAMPLE 
debg|decoder_swo.c:214->decoder_swo_data_in(): decoded 22
debg|decoder_swo.c:216->decoder_swo_data_in(): total size decoded 880
debg|decoder_swo.c:217->decoder_swo_data_in(): Total number of decoded packet 294
debg|decoder_swo.c:239->decoder_swo_data_out(): Number of data received 880
debg|pkt_converter.c:594->pkt_convert(): Number of packet received 22
debg|decoder_swo.c:66->default_packet_handler(): Message 0, LIBSWO_PACKET_TYPE_OF 
debg|decoder_swo.c:66->default_packet_handler(): Message 0, LIBSWO_PACKET_TYPE_DWT_PC_SAMPLE 
debg|decoder_swo.c:66->default_packet_handler(): Message 0, LIBSWO_PACKET_TYPE_OF 
debg|decoder_swo.c:66->default_packet_handler(): Message 0, LIBSWO_PACKET_TYPE_DWT_PC_SAMPLE 
debg|decoder_swo.c:66->default_packet_handler(): Message 0, LIBSWO_PACKET_TYPE_OF 
debg|decoder_swo.c:66->default_packet_handler(): Message 0, LIBSWO_PACKET_TYPE_DWT_PC_SAMPLE 
debg|decoder_swo.c:66->default_packet_handler(): Message 0, LIBSWO_PACKET_TYPE_OF 
debg|decoder_swo.c:66->default_packet_handler(): Message 0, LIBSWO_PACKET_TYPE_DWT_PC_SAMPLE 
debg|decoder_swo.c:66->default_packet_handler(): Message 0, LIBSWO_PACKET_TYPE_OF 
debg|decoder_swo.c:66->default_packet_handler(): Message 0, LIBSWO_PACKET_TYPE_DWT_PC_SAMPLE 
debg|decoder_swo.c:66->default_packet_handler(): Message 0, LIBSWO_PACKET_TYPE_OF 
debg|decoder_swo.c:66->default_packet_handler(): Message 0, LIBSWO_PACKET_TYPE_DWT_PC_SAMPLE 
debg|decoder_swo.c:66->default_packet_handler(): Message 0, LIBSWO_PACKET_TYPE_OF 
debg|decoder_swo.c:66->default_packet_handler(): Message 0, LIBSWO_PACKET_TYPE_DWT_PC_SAMPLE 
debg|decoder_swo.c:66->default_packet_handler(): Message 0, LIBSWO_PACKET_TYPE_OF 
debg|decoder_swo.c:66->default_packet_handler(): Message 0, LIBSWO_PACKET_TYPE_DWT_PC_SAMPLE 
debg|decoder_swo.c:66->default_packet_handler(): Message 0, LIBSWO_PACKET_TYPE_OF 
debg|decoder_swo.c:66->default_packet_handler(): Message 0, LIBSWO_PACKET_TYPE_DWT_PC_SAMPLE 
debg|decoder_swo.c:66->default_packet_handler(): Message 0, LIBSWO_PACKET_TYPE_OF 
debg|decoder_swo.c:66->default_packet_handler(): Message 0, LIBSWO_PACKET_TYPE_DWT_PC_SAMPLE 
debg|decoder_swo.c:66->default_packet_handler():warn|processing.c:49->processing_data_out_default(): No callback defined yet
 Message 0, LIBSWO_PACKET_TYPE_OF 
debg|decoder_swo.c:66->default_packet_handler(): Message 0, LIBSWO_PACKET_TYPE_DWT_PC_SAMPLE 
debg|decoder_swo.c:66->default_packet_handler(): Message 0, LIBSWO_PACKET_TYPE_OF 
debg|decoder_swo.c:66->default_packet_handler(): Message 0, LIBSWO_PACKET_TYPE_DWT_PC_SAMPLE 
debg|decoder_swo.c:66->default_packet_handler(): Message 0, LIBSWO_PACKET_TYPE_OF 
debg|decoder_swo.c:66->default_packet_handler(): Message 0, LIBSWO_PACKET_TYPE_DWT_PC_SAMPLE 
debg|decoder_swo.c:66->default_packet_handler(): Message 0, LIBSWO_PACKET_TYPE_OF 
debg|decoder_swo.c:66->default_packet_handler(): Message 0, LIBSWO_PACKET_TYPE_DWT_PC_SAMPLE 
debg|decoder_swo.c:66->default_packet_handler(): Message 0, LIBSWO_PACKET_TYPE_OF 
debg|decoder_swo.c:66->default_packet_handler(): Message 0, LIBSWO_PACKET_TYPE_DWT_PC_SAMPLE 
debg|decoder_swo.c:66->default_packet_handler(): Message 0, LIBSWO_PACKET_TYPE_OF 
debg|decoder_swo.c:66->default_packet_handler(): Message 0, LIBSWO_PACKET_TYPE_DWT_PC_SAMPLE 
debg|decoder_swo.c:66->default_packet_handler(): Message 0, LIBSWO_PACKET_TYPE_OF 
debg|decoder_swo.c:66->default_packet_handler(): Message 0, LIBSWO_PACKET_TYPE_DWT_PC_SAMPLE 
debg|decoder_swo.c:66->default_packet_handler(): Message 0, LIBSWO_PACKET_TYPE_OF 
debg|decoder_swo.c:66->default_packet_handler(): Message 0, LIBSWO_PACKET_TYPE_DWT_PC_SAMPLE 
debg|decoder_swo.c:66->default_packet_handler(): Message 0, LIBSWO_PACKET_TYPE_OF 
debg|decoder_swo.c:66->default_packet_handler(): Message 0, LIBSWO_PACKET_TYPE_DWT_PC_SAMPLE 
debg|decoder_swo.c:66->default_packet_handler(): Message 0, LIBSWO_PACKET_TYPE_OF 
debg|decoder_swo.c:66->default_packet_handler(): Message 0, LIBSWO_PACKET_TYPE_DWT_PC_SAMPLE 
debg|decoder_swo.c:66->default_packet_handler(): Message 0, LIBSWO_PACKET_TYPE_OF 
debg|decoder_swo.c:66->default_packet_handler(): Message 0, LIBSWO_PACKET_TYPE_DWT_PC_SAMPLE 
debg|decoder_swo.c:66->default_packet_handler(): Message 0, LIBSWO_PACKET_TYPE_OF 
debg|decoder_swo.c:214->decoder_swo_data_in(): decoded 21
debg|decoder_swo.c:216->decoder_swo_data_in(): total size decoded 840
debg|decoder_swo.c:217->decoder_swo_data_in(): Total number of decoded packet 315
debg|decoder_swo.c:239->decoder_swo_data_out(): Number of data received 840
debg|pkt_converter.c:594->pkt_convert(): Number of packet received 21
debg|decoder_swo.c:66->default_packet_handler(): Message 0, LIBSWO_PACKET_TYPE_DWT_PC_SAMPLE 
debg|decoder_swo.c:66->default_packet_handler(): Message 0, LIBSWO_PACKET_TYPE_OF 
debg|decoder_swo.c:66->default_packet_handler(): Message 0, LIBSWO_PACKET_TYPE_DWT_PC_SAMPLE 
debg|decoder_swo.c:66->default_packet_handler(): Message 0, LIBSWO_PACKET_TYPE_OF 
debg|decoder_swo.c:66->default_packet_handler(): Message 0, LIBSWO_PACKET_TYPE_DWT_PC_SAMPLE 
debg|decoder_swo.c:66->default_packet_handler(): Message 0, LIBSWO_PACKET_TYPE_OF 
debg|decoder_swo.c:66->default_packet_handler(): Message 0, LIBSWO_PACKET_TYPE_DWT_PC_SAMPLE 
debg|decoder_swo.c:66->default_packet_handler(): Message 0, LIBSWO_PACKET_TYPE_OF 
debg|decoder_swo.c:66->default_packet_handler(): Message 0, LIBSWO_PACKET_TYPE_DWT_PC_SAMPLE 
debg|decoder_swo.c:66->default_packet_handler(): Message 0, LIBSWO_PACKET_TYPE_OF 
debg|decoder_swo.c:66->default_packet_handler(): Message 0, LIBSWO_PACKET_TYPE_DWT_PC_SAMPLE 
debg|decoder_swo.c:66->default_packet_handler(): Message 0, LIBSWO_PACKET_TYPE_OF 
debg|decoder_swo.c:66->default_packet_handler(): Message 0, LIBSWO_PACKET_TYPE_DWT_PC_SAMPLE 
debg|decoder_swo.c:66->default_packet_handler(): Message 0, LIBSWO_PACKET_TYPE_OF 
debg|decoder_swo.c:66->default_packet_handler(): Message 0, LIBSWO_PACKET_TYPE_DWT_PC_SAMPLE 
debg|decoder_swo.c:66->default_packet_handler(): Message 0, LIBSWO_PACKET_TYPE_OF 
debg|decoder_swo.c:66->default_packet_handler(): Message 0, LIBSWO_PACKET_TYPE_DWT_PC_SAMPLE 
debg|decoder_swo.c:66->default_packet_handler(): Message 0, LIBSWO_PACKET_TYPE_OF 
debg|decoder_swo.c:66->default_packet_handler(): Message 0, LIBSWO_PACKET_TYPE_DWT_PC_SAMPLE 
debg|decoder_swo.c:66->default_packet_handler(): Message 0, LIBSWO_PACKwarn|processing.c:49->processing_data_out_default(): No callback defined yet
ET_TYPE_OF 
debg|decoder_swo.c:66->default_packet_handler(): Message 0, LIBSWO_PACKET_TYPE_DWT_PC_SAMPLE 
debg|decoder_swo.c:66->default_packet_handler(): Message 0, LIBSWO_PACKET_TYPE_OF 
debg|decoder_swo.c:66->default_packet_handler(): Message 0, LIBSWO_PACKET_TYPE_DWT_PC_SAMPLE 
debg|decoder_swo.c:66->default_packet_handler(): Message 0, LIBSWO_PACKET_TYPE_OF 
debg|decoder_swo.c:66->default_packet_handler(): Message 0, LIBSWO_PACKET_TYPE_DWT_PC_SAMPLE 
debg|decoder_swo.c:66->default_packet_handler(): Message 0, LIBSWO_PACKET_TYPE_OF 
debg|decoder_swo.c:66->default_packet_handler(): Message 0, LIBSWO_PACKET_TYPE_DWT_PC_SAMPLE 
debg|decoder_swo.c:66->default_packet_handler(): Message 0, LIBSWO_PACKET_TYPE_OF 
debg|decoder_swo.c:66->default_packet_handler(): Message 0, LIBSWO_PACKET_TYPE_DWT_PC_SAMPLE 
debg|decoder_swo.c:66->default_packet_handler(): Message 0, LIBSWO_PACKET_TYPE_OF 
debg|decoder_swo.c:66->default_packet_handler(): Message 0, LIBSWO_PACKET_TYPE_DWT_PC_SAMPLE 
debg|decoder_swo.c:66->default_packet_handler(): Message 0, LIBSWO_PACKET_TYPE_OF 
debg|decoder_swo.c:66->default_packet_handler(): Message 0, LIBSWO_PACKET_TYPE_DWT_PC_SAMPLE 
debg|decoder_swo.c:66->default_packet_handler(): Message 0, LIBSWO_PACKET_TYPE_OF 
debg|decoder_swo.c:66->default_packet_handler(): Message 0, LIBSWO_PACKET_TYPE_DWT_PC_SAMPLE 
debg|decoder_swo.c:66->default_packet_handler(): Message 0, LIBSWO_PACKET_TYPE_OF 
debg|decoder_swo.c:66->default_packet_handler(): Message 0, LIBSWO_PACKET_TYPE_DWT_PC_SAMPLE 
debg|decoder_swo.c:66->default_packet_handler(): Message 0, LIBSWO_PACKET_TYPE_OF 
debg|decoder_swo.c:66->default_packet_handler(): Message 0, LIBSWO_PACKET_TYPE_DWT_PC_SAMPLE 
debg|decoder_swo.c:66->default_packet_handler(): Message 0, LIBSWO_PACKET_TYPE_OF 
debg|decoder_swo.c:66->default_packet_handler(): Message 0, LIBSWO_PACKET_TYPE_DWT_PC_SAMPLE 
debg|decoder_swo.c:66->default_packet_handler(): Message 0, LIBSWO_PACKET_TYPE_OF 
debg|decoder_swo.c:214->decoder_swo_data_in(): decoded 21
debg|decoder_swo.c:216->decoder_swo_data_in(): total size decoded 840
debg|decoder_swo.c:217->decoder_swo_data_in(): Total number of decoded packet 336
debg|decoder_swo.c:239->decoder_swo_data_out(): Number of data received 840
debg|pkt_converter.c:594->pkt_convert(): Number of packet received 21
debg|decoder_swo.c:66->default_packet_handler(): Message 0, LIBSWO_PACKET_TYPE_DWT_PC_SAMPLE 
debg|decoder_swo.c:66->default_packet_handler(): Message 0, LIBSWO_PACKET_TYPE_OF 
debg|decoder_swo.c:66->default_packet_handler(): Message 0, LIBSWO_PACKET_TYPE_DWT_PC_SAMPLE 
debg|decoder_swo.c:66->default_packet_handler(): Message 0, LIBSWO_PACKET_TYPE_OF 
debg|decoder_swo.c:66->default_packet_handler(): Message 0, LIBSWO_PACKET_TYPE_DWT_PC_SAMPLE 
debg|decoder_swo.c:66->default_packet_handler(): Message 0, LIBSWO_PACKET_TYPE_OF 
debg|decoder_swo.c:66->default_packet_handler(): Message 0, LIBSWO_PACKET_TYPE_DWT_PC_SAMPLE 
debg|decoder_swo.c:66->default_packet_handler(): Message 0, LIBSWO_PACKET_TYPE_OF 
debg|decoder_swo.c:66->default_packet_handler(): Message 0, LIBSWO_PACKET_TYPE_DWT_PC_SAMPLE 
debg|decoder_swo.c:66->default_packet_handler(): Message 0, LIBSWO_PACKET_TYPE_OF 
debg|decoder_swo.c:66->default_packet_handler(): Message 0, LIBSWO_PACKET_TYPE_DWT_PC_SAMPLE 
debg|decoder_swo.c:66->default_packet_handler(): Message 0, LIBSWO_PACKET_TYPE_OF 
debg|decoder_swo.c:66->default_packet_handler(): Message 0, LIBSWO_PACKET_TYPE_DWT_PC_SAMPLE 
debg|decoder_swo.c:66->default_packet_handler(): Message 0, LIBSWO_PACKET_TYPE_OF 
debg|decoder_swo.c:66->default_packet_handler(): Message 0, LIBSWO_PACKET_TYPE_DWT_PC_SAMPLE 
debg|decoder_swo.c:66->default_packet_handler(): Message 0, LIBSWO_PACKET_TYPE_OF 
debg|decoder_swo.c:66->default_packet_handler(): Message 0, LIBSWO_PACKET_TYPE_DWT_PC_SAMPLE 
debg|decoder_swo.c:66->default_packet_handler(): Message 0, LIBSWO_PACKET_TYPE_OF 
debg|decoder_swo.c:66->default_packet_handler(): Message 0, LIBSWO_PACKET_TYPE_DWT_PC_SAMPLE 
debg|decoder_swo.c:66->default_packet_handler(): Message 0, LIBSWO_PACKET_TYPE_OF 
debg|decodewarn|processing.c:49->processing_data_out_default(): No callback defined yet
r_swo.c:66->default_packet_handler(): Message 0, LIBSWO_PACKET_TYPE_DWT_PC_SAMPLE 
debg|decoder_swo.c:66->default_packet_handler(): Message 0, LIBSWO_PACKET_TYPE_OF 
debg|decoder_swo.c:66->default_packet_handler(): Message 0, LIBSWO_PACKET_TYPE_DWT_PC_SAMPLE 
debg|decoder_swo.c:66->default_packet_handler(): Message 0, LIBSWO_PACKET_TYPE_OF 
debg|decoder_swo.c:66->default_packet_handler(): Message 0, LIBSWO_PACKET_TYPE_DWT_PC_SAMPLE 
debg|decoder_swo.c:66->default_packet_handler(): Message 0, LIBSWO_PACKET_TYPE_OF 
debg|decoder_swo.c:66->default_packet_handler(): Message 0, LIBSWO_PACKET_TYPE_DWT_PC_SAMPLE 
debg|decoder_swo.c:66->default_packet_handler(): Message 0, LIBSWO_PACKET_TYPE_OF 
debg|decoder_swo.c:66->default_packet_handler(): Message 0, LIBSWO_PACKET_TYPE_DWT_PC_SAMPLE 
debg|decoder_swo.c:66->default_packet_handler(): Message 0, LIBSWO_PACKET_TYPE_OF 
debg|decoder_swo.c:66->default_packet_handler(): Message 0, LIBSWO_PACKET_TYPE_DWT_PC_SAMPLE 
debg|decoder_swo.c:66->default_packet_handler(): Message 0, LIBSWO_PACKET_TYPE_OF 
debg|decoder_swo.c:66->default_packet_handler(): Message 0, LIBSWO_PACKET_TYPE_DWT_PC_SAMPLE 
debg|decoder_swo.c:66->default_packet_handler(): Message 0, LIBSWO_PACKET_TYPE_OF 
debg|decoder_swo.c:66->default_packet_handler(): Message 0, LIBSWO_PACKET_TYPE_DWT_PC_SAMPLE 
debg|decoder_swo.c:66->default_packet_handler(): Message 0, LIBSWO_PACKET_TYPE_OF 
debg|decoder_swo.c:66->default_packet_handler(): Message 0, LIBSWO_PACKET_TYPE_DWT_PC_SAMPLE 
debg|decoder_swo.c:66->default_packet_handler(): Message 0, LIBSWO_PACKET_TYPE_OF 
debg|decoder_swo.c:66->default_packet_handler(): Message 0, LIBSWO_PACKET_TYPE_DWT_PC_SAMPLE 
debg|decoder_swo.c:66->default_packet_handler(): Message 0, LIBSWO_PACKET_TYPE_OF 
debg|decoder_swo.c:66->default_packet_handler(): Message 0, LIBSWO_PACKET_TYPE_DWT_PC_SAMPLE 
debg|decoder_swo.c:66->default_packet_handler(): Message 0, LIBSWO_PACKET_TYPE_OF 
debg|decoder_swo.c:66->default_packet_handler(): Message 0, LIBSWO_PACKET_TYPE_DWT_PC_SAMPLE 
debg|decoder_swo.c:214->decoder_swo_data_in(): decoded 22
debg|decoder_swo.c:216->decoder_swo_data_in(): total size decoded 880
debg|decoder_swo.c:217->decoder_swo_data_in(): Total number of decoded packet 358
debg|decoder_swo.c:239->decoder_swo_data_out(): Number of data received 880
debg|pkt_converter.c:594->pkt_convert(): Number of packet received 22
debg|decoder_swo.c:66->default_packet_handler(): Message 0, LIBSWO_PACKET_TYPE_OF 
debg|decoder_swo.c:66->default_packet_handler(): Message 0, LIBSWO_PACKET_TYPE_DWT_PC_SAMPLE 
debg|decoder_swo.c:66->default_packet_handler(): Message 0, LIBSWO_PACKET_TYPE_OF 
debg|decoder_swo.c:66->default_packet_handler(): Message 0, LIBSWO_PACKET_TYPE_DWT_PC_SAMPLE 
debg|decoder_swo.c:66->default_packet_handler(): Message 0, LIBSWO_PACKET_TYPE_OF 
debg|decoder_swo.c:66->default_packet_handler(): Message 0, LIBSWO_PACKET_TYPE_DWT_PC_SAMPLE 
debg|decoder_swo.c:66->default_packet_handler(): Message 0, LIBSWO_PACKET_TYPE_OF 
debg|decoder_swo.c:66->default_packet_handler(): Message 0, LIBSWO_PACKET_TYPE_DWT_PC_SAMPLE 
debg|decoder_swo.c:66->default_packet_handler(): Message 0, LIBSWO_PACKET_TYPE_OF 
debg|decoder_swo.c:66->default_packet_handler(): Message 0, LIBSWO_PACKET_TYPE_DWT_PC_SAMPLE 
debg|decoder_swo.c:66->default_packet_handler(): Message 0, LIBSWO_PACKET_TYPE_OF 
debg|decoder_swo.c:66->default_packet_handler(): Message 0, LIBSWO_PACKET_TYPE_DWT_PC_SAMPLE 
debg|decoder_swo.c:66->default_packet_handler(): Message 0, LIBSWO_PACKET_TYPE_OF 
debg|decoder_swo.c:66->default_packet_handler(): Message 0, LIBSWO_PACKET_TYPE_DWT_PC_SAMPLE 
debg|decoder_swo.c:66->default_packet_handler(): Message 0, LIBSWO_PACKET_TYPE_OF 
debg|decoder_swo.c:66->default_packet_handler(): Message 0, LIBSWO_PACKET_TYPE_DWT_PC_SAMPLE 
debg|decoder_swo.c:66->default_packet_handler(): Message 0, LIBSWO_PACKET_TYPE_OF 
debg|decoder_swo.c:66->default_packet_handler(): Message 0, LIBSWO_PACKET_TYPE_DWT_PC_SAMPLE 
debg|decoder_swo.c:66->default_packet_handler(): Message 0, LIBSWO_PACKET_TYPE_OF 
debg|decoder_swo.c:66->default_pacwarn|processing.c:49->processing_data_out_default(): No callback defined yet
ket_handler(): Message 0, LIBSWO_PACKET_TYPE_DWT_PC_SAMPLE 
debg|decoder_swo.c:66->default_packet_handler(): Message 0, LIBSWO_PACKET_TYPE_OF 
debg|decoder_swo.c:66->default_packet_handler(): Message 0, LIBSWO_PACKET_TYPE_DWT_PC_SAMPLE 
debg|decoder_swo.c:66->default_packet_handler(): Message 0, LIBSWO_PACKET_TYPE_OF 
debg|decoder_swo.c:66->default_packet_handler(): Message 0, LIBSWO_PACKET_TYPE_DWT_PC_SAMPLE 
debg|decoder_swo.c:66->default_packet_handler(): Message 0, LIBSWO_PACKET_TYPE_OF 
debg|decoder_swo.c:66->default_packet_handler(): Message 0, LIBSWO_PACKET_TYPE_DWT_PC_SAMPLE 
debg|decoder_swo.c:66->default_packet_handler(): Message 0, LIBSWO_PACKET_TYPE_OF 
debg|decoder_swo.c:66->default_packet_handler(): Message 0, LIBSWO_PACKET_TYPE_DWT_PC_SAMPLE 
debg|decoder_swo.c:66->default_packet_handler(): Message 0, LIBSWO_PACKET_TYPE_OF 
debg|decoder_swo.c:66->default_packet_handler(): Message 0, LIBSWO_PACKET_TYPE_DWT_PC_SAMPLE 
debg|decoder_swo.c:66->default_packet_handler(): Message 0, LIBSWO_PACKET_TYPE_OF 
debg|decoder_swo.c:66->default_packet_handler(): Message 0, LIBSWO_PACKET_TYPE_DWT_PC_SAMPLE 
debg|decoder_swo.c:66->default_packet_handler(): Message 0, LIBSWO_PACKET_TYPE_OF 
debg|decoder_swo.c:66->default_packet_handler(): Message 0, LIBSWO_PACKET_TYPE_DWT_PC_SAMPLE 
debg|decoder_swo.c:66->default_packet_handler(): Message 0, LIBSWO_PACKET_TYPE_OF 
debg|decoder_swo.c:66->default_packet_handler(): Message 0, LIBSWO_PACKET_TYPE_DWT_PC_SAMPLE 
debg|decoder_swo.c:66->default_packet_handler(): Message 0, LIBSWO_PACKET_TYPE_OF 
debg|decoder_swo.c:66->default_packet_handler(): Message 0, LIBSWO_PACKET_TYPE_DWT_PC_SAMPLE 
debg|decoder_swo.c:66->default_packet_handler(): Message 0, LIBSWO_PACKET_TYPE_OF 
debg|decoder_swo.c:66->default_packet_handler(): Message 0, LIBSWO_PACKET_TYPE_DWT_PC_SAMPLE 
debg|decoder_swo.c:66->default_packet_handler(): Message 0, LIBSWO_PACKET_TYPE_OF 
debg|decoder_swo.c:66->default_packet_handler(): Message 0, LIBSWO_PACKET_TYPE_DWT_PC_SAMPLE 
debg|decoder_swo.c:66->default_packet_handler(): Message 0, LIBSWO_PACKET_TYPE_OF 
debg|decoder_swo.c:214->decoder_swo_data_in(): decoded 21
debg|decoder_swo.c:216->decoder_swo_data_in(): total size decoded 840
debg|decoder_swo.c:217->decoder_swo_data_in(): Total number of decoded packet 379
debg|decoder_swo.c:239->decoder_swo_data_out(): Number of data received 840
debg|pkt_converter.c:594->pkt_convert(): Number of packet received 21
debg|decoder_swo.c:66->default_packet_handler(): Message 0, LIBSWO_PACKET_TYPE_DWT_PC_SAMPLE 
debg|decoder_swo.c:66->default_packet_handler(): Message 0, LIBSWO_PACKET_TYPE_OF 
debg|decoder_swo.c:66->default_packet_handler(): Message 0, LIBSWO_PACKET_TYPE_DWT_PC_SAMPLE 
debg|decoder_swo.c:66->default_packet_handler(): Message 0, LIBSWO_PACKET_TYPE_OF 
debg|decoder_swo.c:66->default_packet_handler(): Message 0, LIBSWO_PACKET_TYPE_DWT_PC_SAMPLE 
debg|decoder_swo.c:66->default_packet_handler(): Message 0, LIBSWO_PACKET_TYPE_OF 
debg|decoder_swo.c:66->default_packet_handler(): Message 0, LIBSWO_PACKET_TYPE_DWT_PC_SAMPLE 
debg|decoder_swo.c:66->default_packet_handler(): Message 0, LIBSWO_PACKET_TYPE_OF 
debg|decoder_swo.c:66->default_packet_handler(): Message 0, LIBSWO_PACKET_TYPE_DWT_PC_SAMPLE 
debg|decoder_swo.c:66->default_packet_handler(): Message 0, LIBSWO_PACKET_TYPE_OF 
debg|decoder_swo.c:66->default_packet_handler(): Message 0, LIBSWO_PACKET_TYPE_DWT_PC_SAMPLE 
debg|decoder_swo.c:66->default_packet_handler(): Message 0, LIBSWO_PACKET_TYPE_OF 
debg|decoder_swo.c:66->default_packet_handler(): Message 0, LIBSWO_PACKET_TYPE_DWT_PC_SAMPLE 
debg|decoder_swo.c:66->default_packet_handler(): Message 0, LIBSWO_PACKET_TYPE_OF 
debg|decoder_swo.c:66->default_packet_handler(): Message 0, LIBSWO_PACKET_TYPE_DWT_PC_SAMPLE 
debg|decoder_swo.c:66->default_packet_handler(): Message 0, LIBSWO_PACKET_TYPE_OF 
debg|decoder_swo.c:66->default_packet_handler(): Message 0, LIBSWO_PACKET_TYPE_DWT_PC_SAMPLE 
debg|decoder_swo.c:66->default_packet_handler(): Message 0, LIBSWO_PACKET_TYPE_OF 
debg|decoder_swo.c:66->default_packet_handler(): Message warn|processing.c:49->processing_data_out_default(): No callback defined yet
0, LIBSWO_PACKET_TYPE_DWT_PC_SAMPLE 
debg|decoder_swo.c:66->default_packet_handler(): Message 0, LIBSWO_PACKET_TYPE_OF 
debg|decoder_swo.c:66->default_packet_handler(): Message 0, LIBSWO_PACKET_TYPE_DWT_PC_SAMPLE 
debg|decoder_swo.c:66->default_packet_handler(): Message 0, LIBSWO_PACKET_TYPE_OF 
debg|decoder_swo.c:66->default_packet_handler(): Message 0, LIBSWO_PACKET_TYPE_DWT_PC_SAMPLE 
debg|decoder_swo.c:66->default_packet_handler(): Message 0, LIBSWO_PACKET_TYPE_OF 
debg|decoder_swo.c:66->default_packet_handler(): Message 0, LIBSWO_PACKET_TYPE_DWT_PC_SAMPLE 
debg|decoder_swo.c:66->default_packet_handler(): Message 0, LIBSWO_PACKET_TYPE_OF 
debg|decoder_swo.c:66->default_packet_handler(): Message 0, LIBSWO_PACKET_TYPE_DWT_PC_SAMPLE 
debg|decoder_swo.c:66->default_packet_handler(): Message 0, LIBSWO_PACKET_TYPE_OF 
debg|decoder_swo.c:66->default_packet_handler(): Message 0, LIBSWO_PACKET_TYPE_DWT_PC_SAMPLE 
debg|decoder_swo.c:66->default_packet_handler(): Message 0, LIBSWO_PACKET_TYPE_OF 
debg|decoder_swo.c:66->default_packet_handler(): Message 0, LIBSWO_PACKET_TYPE_DWT_PC_SAMPLE 
debg|decoder_swo.c:66->default_packet_handler(): Message 0, LIBSWO_PACKET_TYPE_OF 
debg|decoder_swo.c:66->default_packet_handler(): Message 0, LIBSWO_PACKET_TYPE_DWT_PC_SAMPLE 
debg|decoder_swo.c:66->default_packet_handler(): Message 0, LIBSWO_PACKET_TYPE_OF 
debg|decoder_swo.c:66->default_packet_handler(): Message 0, LIBSWO_PACKET_TYPE_DWT_PC_SAMPLE 
debg|decoder_swo.c:66->default_packet_handler(): Message 0, LIBSWO_PACKET_TYPE_OF 
debg|decoder_swo.c:66->default_packet_handler(): Message 0, LIBSWO_PACKET_TYPE_DWT_PC_SAMPLE 
debg|decoder_swo.c:66->default_packet_handler(): Message 0, LIBSWO_PACKET_TYPE_OF 
debg|decoder_swo.c:66->default_packet_handler(): Message 0, LIBSWO_PACKET_TYPE_DWT_PC_SAMPLE 
debg|decoder_swo.c:66->default_packet_handler(): Message 0, LIBSWO_PACKET_TYPE_OF 
debg|decoder_swo.c:66->default_packet_handler(): Message 0, LIBSWO_PACKET_TYPE_DWT_PC_SAMPLE 
debg|decoder_swo.c:66->default_packet_handler(): Message 0, LIBSWO_PACKET_TYPE_OF 
debg|decoder_swo.c:214->decoder_swo_data_in(): decoded 21
debg|decoder_swo.c:216->decoder_swo_data_in(): total size decoded 840
debg|decoder_swo.c:217->decoder_swo_data_in(): Total number of decoded packet 400
debg|decoder_swo.c:239->decoder_swo_data_out(): Number of data received 840
debg|pkt_converter.c:594->pkt_convert(): Number of packet received 21
debg|decoder_swo.c:66->default_packet_handler(): Message 0, LIBSWO_PACKET_TYPE_DWT_PC_SAMPLE 
debg|decoder_swo.c:66->default_packet_handler(): Message 0, LIBSWO_PACKET_TYPE_OF 
debg|decoder_swo.c:66->default_packet_handler(): Message 0, LIBSWO_PACKET_TYPE_DWT_PC_SAMPLE 
debg|decoder_swo.c:66->default_packet_handler(): Message 0, LIBSWO_PACKET_TYPE_OF 
debg|decoder_swo.c:66->default_packet_handler(): Message 0, LIBSWO_PACKET_TYPE_DWT_PC_SAMPLE 
debg|decoder_swo.c:66->default_packet_handler(): Message 0, LIBSWO_PACKET_TYPE_OF 
debg|decoder_swo.c:66->default_packet_handler(): Message 0, LIBSWO_PACKET_TYPE_DWT_PC_SAMPLE 
debg|decoder_swo.c:66->default_packet_handler(): Message 0, LIBSWO_PACKET_TYPE_OF 
debg|decoder_swo.c:66->default_packet_handler(): Message 0, LIBSWO_PACKET_TYPE_DWT_PC_SAMPLE 
debg|decoder_swo.c:66->default_packet_handler(): Message 0, LIBSWO_PACKET_TYPE_OF 
debg|decoder_swo.c:66->default_packet_handler(): Message 0, LIBSWO_PACKET_TYPE_DWT_PC_SAMPLE 
debg|decoder_swo.c:66->default_packet_handler(): Message 0, LIBSWO_PACKET_TYPE_OF 
debg|decoder_swo.c:66->default_packet_handler(): Message 0, LIBSWO_PACKET_TYPE_DWT_PC_SAMPLE 
debg|decoder_swo.c:66->default_packet_handler(): Message 0, LIBSWO_PACKET_TYPE_OF 
debg|decoder_swo.c:66->default_packet_handler(): Message 0, LIBSWO_PACKET_TYPE_DWT_PC_SAMPLE 
debg|decoder_swo.c:66->default_packet_handler(): Message 0, LIBSWO_PACKET_TYPE_OF 
debg|decoder_swo.c:66->default_packet_handler(): Message 0, LIBSWO_PACKET_TYPE_DWT_PC_SAMPLE 
debg|decoder_swo.c:66->default_packet_handler(): Message 0, LIBSWO_PACKET_TYPE_OF 
debg|decoder_swo.c:66->default_packet_handler(): Message 0, LIBSWO_PACKET_TYPE_Dwarn|processing.c:49->processing_data_out_default(): No callback defined yet
WT_PC_SAMPLE 
debg|decoder_swo.c:66->default_packet_handler(): Message 0, LIBSWO_PACKET_TYPE_OF 
debg|decoder_swo.c:66->default_packet_handler(): Message 0, LIBSWO_PACKET_TYPE_DWT_PC_SAMPLE 
debg|decoder_swo.c:66->default_packet_handler(): Message 0, LIBSWO_PACKET_TYPE_OF 
debg|decoder_swo.c:66->default_packet_handler(): Message 0, LIBSWO_PACKET_TYPE_DWT_PC_SAMPLE 
debg|decoder_swo.c:66->default_packet_handler(): Message 0, LIBSWO_PACKET_TYPE_OF 
debg|decoder_swo.c:66->default_packet_handler(): Message 0, LIBSWO_PACKET_TYPE_DWT_PC_SAMPLE 
debg|decoder_swo.c:66->default_packet_handler(): Message 0, LIBSWO_PACKET_TYPE_OF 
debg|decoder_swo.c:66->default_packet_handler(): Message 0, LIBSWO_PACKET_TYPE_DWT_PC_SAMPLE 
debg|decoder_swo.c:66->default_packet_handler(): Message 0, LIBSWO_PACKET_TYPE_OF 
debg|decoder_swo.c:66->default_packet_handler(): Message 0, LIBSWO_PACKET_TYPE_DWT_PC_SAMPLE 
debg|decoder_swo.c:66->default_packet_handler(): Message 0, LIBSWO_PACKET_TYPE_OF 
debg|decoder_swo.c:66->default_packet_handler(): Message 0, LIBSWO_PACKET_TYPE_DWT_PC_SAMPLE 
debg|decoder_swo.c:66->default_packet_handler(): Message 0, LIBSWO_PACKET_TYPE_OF 
debg|decoder_swo.c:66->default_packet_handler(): Message 0, LIBSWO_PACKET_TYPE_DWT_PC_SAMPLE 
debg|decoder_swo.c:66->default_packet_handler(): Message 0, LIBSWO_PACKET_TYPE_OF 
debg|decoder_swo.c:66->default_packet_handler(): Message 0, LIBSWO_PACKET_TYPE_DWT_PC_SAMPLE 
debg|decoder_swo.c:66->default_packet_handler(): Message 0, LIBSWO_PACKET_TYPE_OF 
debg|decoder_swo.c:66->default_packet_handler(): Message 0, LIBSWO_PACKET_TYPE_DWT_PC_SAMPLE 
debg|decoder_swo.c:66->default_packet_handler(): Message 0, LIBSWO_PACKET_TYPE_OF 
debg|decoder_swo.c:66->default_packet_handler(): Message 0, LIBSWO_PACKET_TYPE_DWT_PC_SAMPLE 
debg|decoder_swo.c:66->default_packet_handler(): Message 0, LIBSWO_PACKET_TYPE_OF 
debg|decoder_swo.c:66->default_packet_handler(): Message 0, LIBSWO_PACKET_TYPE_DWT_PC_SAMPLE 
debg|decoder_swo.c:66->default_packet_handler(): Message 0, LIBSWO_PACKET_TYPE_OF 
debg|decoder_swo.c:66->default_packet_handler(): Message 0, LIBSWO_PACKET_TYPE_DWT_PC_SAMPLE 
debg|decoder_swo.c:214->decoder_swo_data_in(): decoded 22
debg|decoder_swo.c:216->decoder_swo_data_in(): total size decoded 880
debg|decoder_swo.c:217->decoder_swo_data_in(): Total number of decoded packet 422
debg|decoder_swo.c:239->decoder_swo_data_out(): Number of data received 880
debg|pkt_converter.c:594->pkt_convert(): Number of packet received 22
debg|decoder_swo.c:66->default_packet_handler(): Message 0, LIBSWO_PACKET_TYPE_OF 
debg|decoder_swo.c:66->default_packet_handler(): Message 0, LIBSWO_PACKET_TYPE_DWT_PC_SAMPLE 
debg|decoder_swo.c:66->default_packet_handler(): Message 0, LIBSWO_PACKET_TYPE_OF 
debg|decoder_swo.c:66->default_packet_handler(): Message 0, LIBSWO_PACKET_TYPE_DWT_PC_SAMPLE 
debg|decoder_swo.c:66->default_packet_handler(): Message 0, LIBSWO_PACKET_TYPE_OF 
debg|decoder_swo.c:66->default_packet_handler(): Message 0, LIBSWO_PACKET_TYPE_DWT_PC_SAMPLE 
debg|decoder_swo.c:66->default_packet_handler(): Message 0, LIBSWO_PACKET_TYPE_OF 
debg|decoder_swo.c:66->default_packet_handler(): Message 0, LIBSWO_PACKET_TYPE_DWT_PC_SAMPLE 
debg|decoder_swo.c:66->default_packet_handler(): Message 0, LIBSWO_PACKET_TYPE_OF 
debg|decoder_swo.c:66->default_packet_handler(): Message 0, LIBSWO_PACKET_TYPE_DWT_PC_SAMPLE 
debg|decoder_swo.c:66->default_packet_handler(): Message 0, LIBSWO_PACKET_TYPE_OF 
debg|decoder_swo.c:66->default_packet_handler(): Message 0, LIBSWO_PACKET_TYPE_DWT_PC_SAMPLE 
debg|decoder_swo.c:66->default_packet_handler(): Message 0, LIBSWO_PACKET_TYPE_OF 
debg|decoder_swo.c:66->default_packet_handler(): Message 0, LIBSWO_PACKET_TYPE_DWT_PC_SAMPLE 
debg|decoder_swo.c:66->default_packet_handler(): Message 0, LIBSWO_PACKET_TYPE_OF 
debg|decoder_swo.c:66->default_packet_handler(): Message 0, LIBSWO_PACKET_TYPE_DWT_PC_SAMPLE 
debg|decoder_swo.c:66->default_packet_handler(): Message 0, LIBSWO_PACKET_TYPE_OF 
debg|decoder_swo.c:66->default_packet_handler(): Message 0, LIBSWO_PACKET_TYPE_DWT_PC_SAMPLE 
debg|decowarn|processing.c:49->processing_data_out_default(): No callback defined yet
der_swo.c:66->default_packet_handler(): Message 0, LIBSWO_PACKET_TYPE_OF 
debg|decoder_swo.c:66->default_packet_handler(): Message 0, LIBSWO_PACKET_TYPE_DWT_PC_SAMPLE 
debg|decoder_swo.c:66->default_packet_handler(): Message 0, LIBSWO_PACKET_TYPE_OF 
debg|decoder_swo.c:66->default_packet_handler(): Message 0, LIBSWO_PACKET_TYPE_DWT_PC_SAMPLE 
debg|decoder_swo.c:66->default_packet_handler(): Message 0, LIBSWO_PACKET_TYPE_OF 
debg|decoder_swo.c:66->default_packet_handler(): Message 0, LIBSWO_PACKET_TYPE_DWT_PC_SAMPLE 
debg|decoder_swo.c:66->default_packet_handler(): Message 0, LIBSWO_PACKET_TYPE_OF 
debg|decoder_swo.c:66->default_packet_handler(): Message 0, LIBSWO_PACKET_TYPE_DWT_PC_SAMPLE 
debg|decoder_swo.c:66->default_packet_handler(): Message 0, LIBSWO_PACKET_TYPE_OF 
debg|decoder_swo.c:66->default_packet_handler(): Message 0, LIBSWO_PACKET_TYPE_DWT_PC_SAMPLE 
debg|decoder_swo.c:66->default_packet_handler(): Message 0, LIBSWO_PACKET_TYPE_OF 
debg|decoder_swo.c:66->default_packet_handler(): Message 0, LIBSWO_PACKET_TYPE_DWT_PC_SAMPLE 
debg|decoder_swo.c:66->default_packet_handler(): Message 0, LIBSWO_PACKET_TYPE_OF 
debg|decoder_swo.c:66->default_packet_handler(): Message 0, LIBSWO_PACKET_TYPE_DWT_PC_SAMPLE 
debg|decoder_swo.c:66->default_packet_handler(): Message 0, LIBSWO_PACKET_TYPE_OF 
debg|decoder_swo.c:66->default_packet_handler(): Message 0, LIBSWO_PACKET_TYPE_DWT_PC_SAMPLE 
debg|decoder_swo.c:66->default_packet_handler(): Message 0, LIBSWO_PACKET_TYPE_OF 
debg|decoder_swo.c:66->default_packet_handler(): Message 0, LIBSWO_PACKET_TYPE_DWT_PC_SAMPLE 
debg|decoder_swo.c:66->default_packet_handler(): Message 0, LIBSWO_PACKET_TYPE_OF 
debg|decoder_swo.c:66->default_packet_handler(): Message 0, LIBSWO_PACKET_TYPE_DWT_PC_SAMPLE 
debg|decoder_swo.c:66->default_packet_handler(): Message 0, LIBSWO_PACKET_TYPE_OF 
debg|decoder_swo.c:66->default_packet_handler(): Message 0, LIBSWO_PACKET_TYPE_DWT_PC_SAMPLE 
debg|decoder_swo.c:66->default_packet_handler(): Message 0, LIBSWO_PACKET_TYPE_OF 
debg|decoder_swo.c:66->default_packet_handler(): Message 0, LIBSWO_PACKET_TYPE_DWT_PC_SAMPLE 
debg|decoder_swo.c:66->default_packet_handler(): Message 0, LIBSWO_PACKET_TYPE_OF 
debg|decoder_swo.c:214->decoder_swo_data_in(): decoded 21
debg|decoder_swo.c:216->decoder_swo_data_in(): total size decoded 840
debg|decoder_swo.c:217->decoder_swo_data_in(): Total number of decoded packet 443
debg|decoder_swo.c:239->decoder_swo_data_out(): Number of data received 840
debg|pkt_converter.c:594->pkt_convert(): Number of packet received 21
debg|decoder_swo.c:66->default_packet_handler(): Message 0, LIBSWO_PACKET_TYPE_DWT_PC_SAMPLE 
debg|decoder_swo.c:66->default_packet_handler(): Message 0, LIBSWO_PACKET_TYPE_OF 
debg|decoder_swo.c:66->default_packet_handler(): Message 0, LIBSWO_PACKET_TYPE_DWT_PC_SAMPLE 
debg|decoder_swo.c:66->default_packet_handler(): Message 0, LIBSWO_PACKET_TYPE_OF 
debg|decoder_swo.c:66->default_packet_handler(): Message 0, LIBSWO_PACKET_TYPE_DWT_PC_SAMPLE 
debg|decoder_swo.c:66->default_packet_handler(): Message 0, LIBSWO_PACKET_TYPE_OF 
debg|decoder_swo.c:66->default_packet_handler(): Message 0, LIBSWO_PACKET_TYPE_DWT_PC_SAMPLE 
debg|decoder_swo.c:66->default_packet_handler(): Message 0, LIBSWO_PACKET_TYPE_OF 
debg|decoder_swo.c:66->default_packet_handler(): Message 0, LIBSWO_PACKET_TYPE_DWT_PC_SAMPLE 
debg|decoder_swo.c:66->default_packet_handler(): Message 0, LIBSWO_PACKET_TYPE_OF 
debg|decoder_swo.c:66->default_packet_handler(): Message 0, LIBSWO_PACKET_TYPE_DWT_PC_SAMPLE 
debg|decoder_swo.c:66->default_packet_handler(): Message 0, LIBSWO_PACKET_TYPE_OF 
debg|decoder_swo.c:66->default_packet_handler(): Message 0, LIBSWO_PACKET_TYPE_DWT_PC_SAMPLE 
debg|decoder_swo.c:66->default_packet_handler(): Message 0, LIBSWO_PACKET_TYPE_OF 
debg|decoder_swo.c:66->default_packet_handler(): Message 0, LIBSWO_PACKET_TYPE_DWT_PC_SAMPLE 
debg|decoder_swo.c:66->default_packet_handler(): Message 0, LIBSWO_PACKET_TYPE_OF 
debg|decoder_swo.c:66->default_packet_handler(): Message 0, LIBSWO_PACKET_TYPE_DWT_PC_SAMPLE 
debg|decoder_swo.c:66->default_pwarn|processing.c:49->processing_data_out_default(): No callback defined yet
acket_handler(): Message 0, LIBSWO_PACKET_TYPE_OF 
debg|decoder_swo.c:66->default_packet_handler(): Message 0, LIBSWO_PACKET_TYPE_DWT_PC_SAMPLE 
debg|decoder_swo.c:66->default_packet_handler(): Message 0, LIBSWO_PACKET_TYPE_OF 
debg|decoder_swo.c:66->default_packet_handler(): Message 0, LIBSWO_PACKET_TYPE_DWT_PC_SAMPLE 
debg|decoder_swo.c:66->default_packet_handler(): Message 0, LIBSWO_PACKET_TYPE_OF 
debg|decoder_swo.c:66->default_packet_handler(): Message 0, LIBSWO_PACKET_TYPE_DWT_PC_SAMPLE 
debg|decoder_swo.c:66->default_packet_handler(): Message 0, LIBSWO_PACKET_TYPE_OF 
debg|decoder_swo.c:66->default_packet_handler(): Message 0, LIBSWO_PACKET_TYPE_DWT_PC_SAMPLE 
debg|decoder_swo.c:66->default_packet_handler(): Message 0, LIBSWO_PACKET_TYPE_OF 
debg|decoder_swo.c:66->default_packet_handler(): Message 0, LIBSWO_PACKET_TYPE_DWT_PC_SAMPLE 
debg|decoder_swo.c:66->default_packet_handler(): Message 0, LIBSWO_PACKET_TYPE_OF 
debg|decoder_swo.c:66->default_packet_handler(): Message 0, LIBSWO_PACKET_TYPE_DWT_PC_SAMPLE 
debg|decoder_swo.c:66->default_packet_handler(): Message 0, LIBSWO_PACKET_TYPE_OF 
debg|decoder_swo.c:66->default_packet_handler(): Message 0, LIBSWO_PACKET_TYPE_DWT_PC_SAMPLE 
debg|decoder_swo.c:66->default_packet_handler(): Message 0, LIBSWO_PACKET_TYPE_OF 
debg|decoder_swo.c:66->default_packet_handler(): Message 0, LIBSWO_PACKET_TYPE_DWT_PC_SAMPLE 
debg|decoder_swo.c:66->default_packet_handler(): Message 0, LIBSWO_PACKET_TYPE_OF 
debg|decoder_swo.c:66->default_packet_handler(): Message 0, LIBSWO_PACKET_TYPE_DWT_PC_SAMPLE 
debg|decoder_swo.c:66->default_packet_handler(): Message 0, LIBSWO_PACKET_TYPE_OF 
debg|decoder_swo.c:66->default_packet_handler(): Message 0, LIBSWO_PACKET_TYPE_DWT_PC_SAMPLE 
debg|decoder_swo.c:66->default_packet_handler(): Message 0, LIBSWO_PACKET_TYPE_OF 
debg|decoder_swo.c:66->default_packet_handler(): Message 0, LIBSWO_PACKET_TYPE_DWT_PC_SAMPLE 
debg|decoder_swo.c:66->default_packet_handler(): Message 0, LIBSWO_PACKET_TYPE_OF 
debg|decoder_swo.c:66->default_packet_handler(): Message 0, LIBSWO_PACKET_TYPE_DWT_PC_SAMPLE 
debg|decoder_swo.c:66->default_packet_handler(): Message 0, LIBSWO_PACKET_TYPE_OF 
debg|decoder_swo.c:214->decoder_swo_data_in(): decoded 21
debg|decoder_swo.c:216->decoder_swo_data_in(): total size decoded 840
debg|decoder_swo.c:217->decoder_swo_data_in(): Total number of decoded packet 464
debg|decoder_swo.c:239->decoder_swo_data_out(): Number of data received 840
debg|pkt_converter.c:594->pkt_convert(): Number of packet received 21
debg|decoder_swo.c:66->default_packet_handler(): Message 0, LIBSWO_PACKET_TYPE_DWT_PC_SAMPLE 
debg|decoder_swo.c:66->default_packet_handler(): Message 0, LIBSWO_PACKET_TYPE_OF 
debg|decoder_swo.c:66->default_packet_handler(): Message 0, LIBSWO_PACKET_TYPE_DWT_PC_SAMPLE 
debg|decoder_swo.c:66->default_packet_handler(): Message 0, LIBSWO_PACKET_TYPE_OF 
debg|decoder_swo.c:66->default_packet_handler(): Message 0, LIBSWO_PACKET_TYPE_DWT_PC_SAMPLE 
debg|decoder_swo.c:66->default_packet_handler(): Message 0, LIBSWO_PACKET_TYPE_OF 
debg|decoder_swo.c:66->default_packet_handler(): Message 0, LIBSWO_PACKET_TYPE_DWT_PC_SAMPLE 
debg|decoder_swo.c:66->default_packet_handler(): Message 0, LIBSWO_PACKET_TYPE_OF 
debg|decoder_swo.c:66->default_packet_handler(): Message 0, LIBSWO_PACKET_TYPE_DWT_PC_SAMPLE 
debg|decoder_swo.c:66->default_packet_handler(): Message 0, LIBSWO_PACKET_TYPE_OF 
debg|decoder_swo.c:66->default_packet_handler(): Message 0, LIBSWO_PACKET_TYPE_DWT_PC_SAMPLE 
debg|decoder_swo.c:66->default_packet_handler(): Message 0, LIBSWO_PACKET_TYPE_OF 
debg|decoder_swo.c:66->default_packet_handler(): Message 0, LIBSWO_PACKET_TYPE_DWT_PC_SAMPLE 
debg|decoder_swo.c:66->default_packet_handler(): Message 0, LIBSWO_PACKET_TYPE_OF 
debg|decoder_swo.c:66->default_packet_handler(): Message 0, LIBSWO_PACKET_TYPE_DWT_PC_SAMPLE 
debg|decoder_swo.c:66->default_packet_handler(): Message 0, LIBSWO_PACKET_TYPE_OF 
debg|decoder_swo.c:66->default_packet_handler(): Message 0, LIBSWO_PACKET_TYPE_DWT_PC_SAMPLE 
debg|decoder_swo.c:66->default_packet_handler(): Messagwarn|processing.c:49->processing_data_out_default(): No callback defined yet
e 0, LIBSWO_PACKET_TYPE_OF 
debg|decoder_swo.c:66->default_packet_handler(): Message 0, LIBSWO_PACKET_TYPE_DWT_PC_SAMPLE 
debg|decoder_swo.c:66->default_packet_handler(): Message 0, LIBSWO_PACKET_TYPE_OF 
debg|decoder_swo.c:66->default_packet_handler(): Message 0, LIBSWO_PACKET_TYPE_DWT_PC_SAMPLE 
debg|decoder_swo.c:66->default_packet_handler(): Message 0, LIBSWO_PACKET_TYPE_OF 
debg|decoder_swo.c:66->default_packet_handler(): Message 0, LIBSWO_PACKET_TYPE_DWT_PC_SAMPLE 
debg|decoder_swo.c:66->default_packet_handler(): Message 0, LIBSWO_PACKET_TYPE_OF 
debg|decoder_swo.c:66->default_packet_handler(): Message 0, LIBSWO_PACKET_TYPE_DWT_PC_SAMPLE 
debg|decoder_swo.c:66->default_packet_handler(): Message 0, LIBSWO_PACKET_TYPE_OF 
debg|decoder_swo.c:66->default_packet_handler(): Message 0, LIBSWO_PACKET_TYPE_DWT_PC_SAMPLE 
debg|decoder_swo.c:66->default_packet_handler(): Message 0, LIBSWO_PACKET_TYPE_OF 
debg|decoder_swo.c:66->default_packet_handler(): Message 0, LIBSWO_PACKET_TYPE_DWT_PC_SAMPLE 
debg|decoder_swo.c:66->default_packet_handler(): Message 0, LIBSWO_PACKET_TYPE_OF 
debg|decoder_swo.c:66->default_packet_handler(): Message 0, LIBSWO_PACKET_TYPE_DWT_PC_SAMPLE 
debg|decoder_swo.c:66->default_packet_handler(): Message 0, LIBSWO_PACKET_TYPE_OF 
debg|decoder_swo.c:66->default_packet_handler(): Message 0, LIBSWO_PACKET_TYPE_DWT_PC_SAMPLE 
debg|decoder_swo.c:66->default_packet_handler(): Message 0, LIBSWO_PACKET_TYPE_OF 
debg|decoder_swo.c:66->default_packet_handler(): Message 0, LIBSWO_PACKET_TYPE_DWT_PC_SAMPLE 
debg|decoder_swo.c:66->default_packet_handler(): Message 0, LIBSWO_PACKET_TYPE_OF 
debg|decoder_swo.c:66->default_packet_handler(): Message 0, LIBSWO_PACKET_TYPE_DWT_PC_SAMPLE 
debg|decoder_swo.c:66->default_packet_handler(): Message 0, LIBSWO_PACKET_TYPE_OF 
debg|decoder_swo.c:66->default_packet_handler(): Message 0, LIBSWO_PACKET_TYPE_DWT_PC_SAMPLE 
debg|decoder_swo.c:66->default_packet_handler(): Message 0, LIBSWO_PACKET_TYPE_OF 
debg|decoder_swo.c:66->default_packet_handler(): Message 0, LIBSWO_PACKET_TYPE_DWT_PC_SAMPLE 
debg|decoder_swo.c:66->default_packet_handler(): Message 0, LIBSWO_PACKET_TYPE_OF 
debg|decoder_swo.c:66->default_packet_handler(): Message 0, LIBSWO_PACKET_TYPE_DWT_PC_SAMPLE 
debg|decoder_swo.c:214->decoder_swo_data_in(): decoded 22
debg|decoder_swo.c:216->decoder_swo_data_in(): total size decoded 880
debg|decoder_swo.c:217->decoder_swo_data_in(): Total number of decoded packet 486
debg|decoder_swo.c:239->decoder_swo_data_out(): Number of data received 880
debg|pkt_converter.c:594->pkt_convert(): Number of packet received 22
debg|decoder_swo.c:66->default_packet_handler(): Message 0, LIBSWO_PACKET_TYPE_OF 
debg|decoder_swo.c:66->default_packet_handler(): Message 0, LIBSWO_PACKET_TYPE_DWT_PC_SAMPLE 
debg|decoder_swo.c:66->default_packet_handler(): Message 0, LIBSWO_PACKET_TYPE_OF 
debg|decoder_swo.c:66->default_packet_handler(): Message 0, LIBSWO_PACKET_TYPE_DWT_PC_SAMPLE 
debg|decoder_swo.c:66->default_packet_handler(): Message 0, LIBSWO_PACKET_TYPE_OF 
debg|decoder_swo.c:66->default_packet_handler(): Message 0, LIBSWO_PACKET_TYPE_DWT_PC_SAMPLE 
debg|decoder_swo.c:66->default_packet_handler(): Message 0, LIBSWO_PACKET_TYPE_OF 
debg|decoder_swo.c:66->default_packet_handler(): Message 0, LIBSWO_PACKET_TYPE_DWT_PC_SAMPLE 
debg|decoder_swo.c:66->default_packet_handler(): Message 0, LIBSWO_PACKET_TYPE_OF 
debg|decoder_swo.c:66->default_packet_handler(): Message 0, LIBSWO_PACKET_TYPE_DWT_PC_SAMPLE 
debg|decoder_swo.c:66->default_packet_handler(): Message 0, LIBSWO_PACKET_TYPE_OF 
debg|decoder_swo.c:66->default_packet_handler(): Message 0, LIBSWO_PACKET_TYPE_DWT_PC_SAMPLE 
debg|decoder_swo.c:66->default_packet_handler(): Message 0, LIBSWO_PACKET_TYPE_OF 
debg|decoder_swo.c:66->default_packet_handler(): Message 0, LIBSWO_PACKET_TYPE_DWT_PC_SAMPLE 
debg|decoder_swo.c:66->default_packet_handler(): Message 0, LIBSWO_PACKET_TYPE_OF 
debg|decoder_swo.c:66->default_packet_handler(): Message 0, LIBSWO_PACKET_TYPE_DWT_PC_SAMPLE 
debg|decoder_swo.c:66->default_packet_handler(): Message 0, LIBSWO_PACKET_TYPEwarn|processing.c:49->processing_data_out_default(): No callback defined yet
_OF 
debg|decoder_swo.c:66->default_packet_handler(): Message 0, LIBSWO_PACKET_TYPE_DWT_PC_SAMPLE 
debg|decoder_swo.c:66->default_packet_handler(): Message 0, LIBSWO_PACKET_TYPE_OF 
debg|decoder_swo.c:66->default_packet_handler(): Message 0, LIBSWO_PACKET_TYPE_DWT_PC_SAMPLE 
debg|decoder_swo.c:66->default_packet_handler(): Message 0, LIBSWO_PACKET_TYPE_OF 
debg|decoder_swo.c:66->default_packet_handler(): Message 0, LIBSWO_PACKET_TYPE_DWT_PC_SAMPLE 
debg|decoder_swo.c:66->default_packet_handler(): Message 0, LIBSWO_PACKET_TYPE_OF 
debg|decoder_swo.c:66->default_packet_handler(): Message 0, LIBSWO_PACKET_TYPE_DWT_PC_SAMPLE 
debg|decoder_swo.c:66->default_packet_handler(): Message 0, LIBSWO_PACKET_TYPE_OF 
debg|decoder_swo.c:66->default_packet_handler(): Message 0, LIBSWO_PACKET_TYPE_DWT_PC_SAMPLE 
debg|decoder_swo.c:66->default_packet_handler(): Message 0, LIBSWO_PACKET_TYPE_OF 
debg|decoder_swo.c:66->default_packet_handler(): Message 0, LIBSWO_PACKET_TYPE_DWT_PC_SAMPLE 
debg|decoder_swo.c:66->default_packet_handler(): Message 0, LIBSWO_PACKET_TYPE_OF 
debg|decoder_swo.c:66->default_packet_handler(): Message 0, LIBSWO_PACKET_TYPE_DWT_PC_SAMPLE 
debg|decoder_swo.c:66->default_packet_handler(): Message 0, LIBSWO_PACKET_TYPE_OF 
debg|decoder_swo.c:66->default_packet_handler(): Message 0, LIBSWO_PACKET_TYPE_DWT_PC_SAMPLE 
debg|decoder_swo.c:66->default_packet_handler(): Message 0, LIBSWO_PACKET_TYPE_OF 
debg|decoder_swo.c:66->default_packet_handler(): Message 0, LIBSWO_PACKET_TYPE_DWT_PC_SAMPLE 
debg|decoder_swo.c:66->default_packet_handler(): Message 0, LIBSWO_PACKET_TYPE_OF 
debg|decoder_swo.c:66->default_packet_handler(): Message 0, LIBSWO_PACKET_TYPE_DWT_PC_SAMPLE 
debg|decoder_swo.c:66->default_packet_handler(): Message 0, LIBSWO_PACKET_TYPE_OF 
debg|decoder_swo.c:66->default_packet_handler(): Message 0, LIBSWO_PACKET_TYPE_DWT_PC_SAMPLE 
debg|decoder_swo.c:66->default_packet_handler(): Message 0, LIBSWO_PACKET_TYPE_OF 
debg|decoder_swo.c:66->default_packet_handler(): Message 0, LIBSWO_PACKET_TYPE_DWT_PC_SAMPLE 
debg|decoder_swo.c:66->default_packet_handler(): Message 0, LIBSWO_PACKET_TYPE_OF 
debg|decoder_swo.c:66->default_packet_handler(): Message 0, LIBSWO_PACKET_TYPE_DWT_PC_SAMPLE 
debg|decoder_swo.c:66->default_packet_handler(): Message 0, LIBSWO_PACKET_TYPE_OF 
debg|decoder_swo.c:214->decoder_swo_data_in(): decoded 21
debg|decoder_swo.c:216->decoder_swo_data_in(): total size decoded 840
debg|decoder_swo.c:217->decoder_swo_data_in(): Total number of decoded packet 507
debg|decoder_swo.c:239->decoder_swo_data_out(): Number of data received 840
debg|pkt_converter.c:594->pkt_convert(): Number of packet received 21
debg|decoder_swo.c:66->default_packet_handler(): Message 0, LIBSWO_PACKET_TYPE_DWT_PC_SAMPLE 
debg|decoder_swo.c:66->default_packet_handler(): Message 0, LIBSWO_PACKET_TYPE_OF 
debg|decoder_swo.c:66->default_packet_handler(): Message 0, LIBSWO_PACKET_TYPE_DWT_PC_SAMPLE 
debg|decoder_swo.c:66->default_packet_handler(): Message 0, LIBSWO_PACKET_TYPE_OF 
debg|decoder_swo.c:66->default_packet_handler(): Message 0, LIBSWO_PACKET_TYPE_DWT_PC_SAMPLE 
debg|decoder_swo.c:66->default_packet_handler(): Message 0, LIBSWO_PACKET_TYPE_OF 
debg|decoder_swo.c:66->default_packet_handler(): Message 0, LIBSWO_PACKET_TYPE_DWT_PC_SAMPLE 
debg|decoder_swo.c:66->default_packet_handler(): Message 0, LIBSWO_PACKET_TYPE_OF 
debg|decoder_swo.c:66->default_packet_handler(): Message 0, LIBSWO_PACKET_TYPE_DWT_PC_SAMPLE 
debg|decoder_swo.c:66->default_packet_handler(): Message 0, LIBSWO_PACKET_TYPE_OF 
debg|decoder_swo.c:66->default_packet_handler(): Message 0, LIBSWO_PACKET_TYPE_DWT_PC_SAMPLE 
debg|decoder_swo.c:66->default_packet_handler(): Message 0, LIBSWO_PACKET_TYPE_OF 
debg|decoder_swo.c:66->default_packet_handler(): Message 0, LIBSWO_PACKET_TYPE_DWT_PC_SAMPLE 
debg|decoder_swo.c:66->default_packet_handler(): Message 0, LIBSWO_PACKET_TYPE_OF 
debg|decoder_swo.c:66->default_packet_handler(): Message 0, LIBSWO_PACKET_TYPE_DWT_PC_SAMPLE 
debg|decoder_swo.c:66->default_packet_handler(): Message 0, LIBSWO_PACKET_TYPE_OF 
debg|decoder_swo.cwarn|processing.c:49->processing_data_out_default(): No callback defined yet
:66->default_packet_handler(): Message 0, LIBSWO_PACKET_TYPE_DWT_PC_SAMPLE 
debg|decoder_swo.c:66->default_packet_handler(): Message 0, LIBSWO_PACKET_TYPE_OF 
debg|decoder_swo.c:66->default_packet_handler(): Message 0, LIBSWO_PACKET_TYPE_DWT_PC_SAMPLE 
debg|decoder_swo.c:66->default_packet_handler(): Message 0, LIBSWO_PACKET_TYPE_OF 
debg|decoder_swo.c:66->default_packet_handler(): Message 0, LIBSWO_PACKET_TYPE_DWT_PC_SAMPLE 
debg|decoder_swo.c:66->default_packet_handler(): Message 0, LIBSWO_PACKET_TYPE_OF 
debg|decoder_swo.c:66->default_packet_handler(): Message 0, LIBSWO_PACKET_TYPE_DWT_PC_SAMPLE 
debg|decoder_swo.c:66->default_packet_handler(): Message 0, LIBSWO_PACKET_TYPE_OF 
debg|decoder_swo.c:66->default_packet_handler(): Message 0, LIBSWO_PACKET_TYPE_DWT_PC_SAMPLE 
debg|decoder_swo.c:66->default_packet_handler(): Message 0, LIBSWO_PACKET_TYPE_OF 
debg|decoder_swo.c:66->default_packet_handler(): Message 0, LIBSWO_PACKET_TYPE_DWT_PC_SAMPLE 
debg|decoder_swo.c:66->default_packet_handler(): Message 0, LIBSWO_PACKET_TYPE_OF 
debg|decoder_swo.c:66->default_packet_handler(): Message 0, LIBSWO_PACKET_TYPE_DWT_PC_SAMPLE 
debg|decoder_swo.c:66->default_packet_handler(): Message 0, LIBSWO_PACKET_TYPE_OF 
debg|decoder_swo.c:66->default_packet_handler(): Message 0, LIBSWO_PACKET_TYPE_DWT_PC_SAMPLE 
debg|decoder_swo.c:66->default_packet_handler(): Message 0, LIBSWO_PACKET_TYPE_OF 
debg|decoder_swo.c:66->default_packet_handler(): Message 0, LIBSWO_PACKET_TYPE_DWT_PC_SAMPLE 
debg|decoder_swo.c:66->default_packet_handler(): Message 0, LIBSWO_PACKET_TYPE_OF 
debg|decoder_swo.c:66->default_packet_handler(): Message 0, LIBSWO_PACKET_TYPE_DWT_PC_SAMPLE 
debg|decoder_swo.c:66->default_packet_handler(): Message 0, LIBSWO_PACKET_TYPE_OF 
debg|decoder_swo.c:66->default_packet_handler(): Message 0, LIBSWO_PACKET_TYPE_DWT_PC_SAMPLE 
debg|decoder_swo.c:66->default_packet_handler(): Message 0, LIBSWO_PACKET_TYPE_OF 
debg|decoder_swo.c:66->default_packet_handler(): Message 0, LIBSWO_PACKET_TYPE_DWT_PC_SAMPLE 
debg|decoder_swo.c:66->default_packet_handler(): Message 0, LIBSWO_PACKET_TYPE_OF 
debg|decoder_swo.c:66->default_packet_handler(): Message 0, LIBSWO_PACKET_TYPE_DWT_PC_SAMPLE 
debg|decoder_swo.c:66->default_packet_handler(): Message 0, LIBSWO_PACKET_TYPE_OF 
debg|decoder_swo.c:214->decoder_swo_data_in(): decoded 21
debg|decoder_swo.c:216->decoder_swo_data_in(): total size decoded 840
debg|decoder_swo.c:217->decoder_swo_data_in(): Total number of decoded packet 528
debg|decoder_swo.c:239->decoder_swo_data_out(): Number of data received 840
debg|pkt_converter.c:594->pkt_convert(): Number of packet received 21
debg|decoder_swo.c:66->default_packet_handler(): Message 0, LIBSWO_PACKET_TYPE_DWT_PC_SAMPLE 
debg|decoder_swo.c:66->default_packet_handler(): Message 0, LIBSWO_PACKET_TYPE_OF 
debg|decoder_swo.c:66->default_packet_handler(): Message 0, LIBSWO_PACKET_TYPE_DWT_PC_SAMPLE 
debg|decoder_swo.c:66->default_packet_handler(): Message 0, LIBSWO_PACKET_TYPE_OF 
debg|decoder_swo.c:66->default_packet_handler(): Message 0, LIBSWO_PACKET_TYPE_DWT_PC_SAMPLE 
debg|decoder_swo.c:66->default_packet_handler(): Message 0, LIBSWO_PACKET_TYPE_OF 
debg|decoder_swo.c:66->default_packet_handler(): Message 0, LIBSWO_PACKET_TYPE_DWT_PC_SAMPLE 
debg|decoder_swo.c:66->default_packet_handler(): Message 0, LIBSWO_PACKET_TYPE_OF 
debg|decoder_swo.c:66->default_packet_handler(): Message 0, LIBSWO_PACKET_TYPE_DWT_PC_SAMPLE 
debg|decoder_swo.c:66->default_packet_handler(): Message 0, LIBSWO_PACKET_TYPE_OF 
debg|decoder_swo.c:66->default_packet_handler(): Message 0, LIBSWO_PACKET_TYPE_DWT_PC_SAMPLE 
debg|decoder_swo.c:66->default_packet_handler(): Message 0, LIBSWO_PACKET_TYPE_OF 
debg|decoder_swo.c:66->default_packet_handler(): Message 0, LIBSWO_PACKET_TYPE_DWT_PC_SAMPLE 
debg|decoder_swo.c:66->default_packet_handler(): Message 0, LIBSWO_PACKET_TYPE_OF 
debg|decoder_swo.c:66->default_packet_handler(): Message 0, LIBSWO_PACKET_TYPE_DWT_PC_SAMPLE 
debg|decoder_swo.c:66->default_packet_handler(): Message 0, LIBSWO_PACKET_TYPE_OF 
debg|decoder_swo.c:66->default_packet_hanwarn|processing.c:49->processing_data_out_default(): No callback defined yet
dler(): Message 0, LIBSWO_PACKET_TYPE_DWT_PC_SAMPLE 
debg|decoder_swo.c:66->default_packet_handler(): Message 0, LIBSWO_PACKET_TYPE_OF 
debg|decoder_swo.c:66->default_packet_handler(): Message 0, LIBSWO_PACKET_TYPE_DWT_PC_SAMPLE 
debg|decoder_swo.c:66->default_packet_handler(): Message 0, LIBSWO_PACKET_TYPE_OF 
debg|decoder_swo.c:66->default_packet_handler(): Message 0, LIBSWO_PACKET_TYPE_DWT_PC_SAMPLE 
debg|decoder_swo.c:66->default_packet_handler(): Message 0, LIBSWO_PACKET_TYPE_OF 
debg|decoder_swo.c:66->default_packet_handler(): Message 0, LIBSWO_PACKET_TYPE_DWT_PC_SAMPLE 
debg|decoder_swo.c:66->default_packet_handler(): Message 0, LIBSWO_PACKET_TYPE_OF 
debg|decoder_swo.c:66->default_packet_handler(): Message 0, LIBSWO_PACKET_TYPE_DWT_PC_SAMPLE 
debg|decoder_swo.c:66->default_packet_handler(): Message 0, LIBSWO_PACKET_TYPE_OF 
debg|decoder_swo.c:66->default_packet_handler(): Message 0, LIBSWO_PACKET_TYPE_DWT_PC_SAMPLE 
debg|decoder_swo.c:66->default_packet_handler(): Message 0, LIBSWO_PACKET_TYPE_OF 
debg|decoder_swo.c:66->default_packet_handler(): Message 0, LIBSWO_PACKET_TYPE_DWT_PC_SAMPLE 
debg|decoder_swo.c:66->default_packet_handler(): Message 0, LIBSWO_PACKET_TYPE_OF 
debg|decoder_swo.c:66->default_packet_handler(): Message 0, LIBSWO_PACKET_TYPE_DWT_PC_SAMPLE 
debg|decoder_swo.c:66->default_packet_handler(): Message 0, LIBSWO_PACKET_TYPE_OF 
debg|decoder_swo.c:66->default_packet_handler(): Message 0, LIBSWO_PACKET_TYPE_DWT_PC_SAMPLE 
debg|decoder_swo.c:66->default_packet_handler(): Message 0, LIBSWO_PACKET_TYPE_OF 
debg|decoder_swo.c:66->default_packet_handler(): Message 0, LIBSWO_PACKET_TYPE_DWT_PC_SAMPLE 
debg|decoder_swo.c:66->default_packet_handler(): Message 0, LIBSWO_PACKET_TYPE_OF 
debg|decoder_swo.c:66->default_packet_handler(): Message 0, LIBSWO_PACKET_TYPE_DWT_PC_SAMPLE 
debg|decoder_swo.c:66->default_packet_handler(): Message 0, LIBSWO_PACKET_TYPE_OF 
debg|decoder_swo.c:66->default_packet_handler(): Message 0, LIBSWO_PACKET_TYPE_DWT_PC_SAMPLE 
debg|decoder_swo.c:66->default_packet_handler(): Message 0, LIBSWO_PACKET_TYPE_OF 
debg|decoder_swo.c:66->default_packet_handler(): Message 0, LIBSWO_PACKET_TYPE_DWT_PC_SAMPLE 
debg|decoder_swo.c:66->default_packet_handler(): Message 0, LIBSWO_PACKET_TYPE_OF 
debg|decoder_swo.c:66->default_packet_handler(): Message 0, LIBSWO_PACKET_TYPE_DWT_PC_SAMPLE 
debg|decoder_swo.c:214->decoder_swo_data_in(): decoded 22
debg|decoder_swo.c:216->decoder_swo_data_in(): total size decoded 880
debg|decoder_swo.c:217->decoder_swo_data_in(): Total number of decoded packet 550
debg|decoder_swo.c:239->decoder_swo_data_out(): Number of data received 880
debg|pkt_converter.c:594->pkt_convert(): Number of packet received 22
debg|decoder_swo.c:66->default_packet_handler(): Message 0, LIBSWO_PACKET_TYPE_OF 
debg|decoder_swo.c:66->default_packet_handler(): Message 0, LIBSWO_PACKET_TYPE_DWT_PC_SAMPLE 
debg|decoder_swo.c:66->default_packet_handler(): Message 0, LIBSWO_PACKET_TYPE_OF 
debg|decoder_swo.c:66->default_packet_handler(): Message 0, LIBSWO_PACKET_TYPE_DWT_PC_SAMPLE 
debg|decoder_swo.c:66->default_packet_handler(): Message 0, LIBSWO_PACKET_TYPE_OF 
debg|decoder_swo.c:66->default_packet_handler(): Message 0, LIBSWO_PACKET_TYPE_DWT_PC_SAMPLE 
debg|decoder_swo.c:66->default_packet_handler(): Message 0, LIBSWO_PACKET_TYPE_OF 
debg|decoder_swo.c:66->default_packet_handler(): Message 0, LIBSWO_PACKET_TYPE_DWT_PC_SAMPLE 
debg|decoder_swo.c:66->default_packet_handler(): Message 0, LIBSWO_PACKET_TYPE_OF 
debg|decoder_swo.c:66->default_packet_handler(): Message 0, LIBSWO_PACKET_TYPE_DWT_PC_SAMPLE 
debg|decoder_swo.c:66->default_packet_handler(): Message 0, LIBSWO_PACKET_TYPE_OF 
debg|decoder_swo.c:66->default_packet_handler(): Message 0, LIBSWO_PACKET_TYPE_DWT_PC_SAMPLE 
debg|decoder_swo.c:66->default_packet_handler(): Message 0, LIBSWO_PACKET_TYPE_OF 
debg|decoder_swo.c:66->default_packet_handler(): Message 0, LIBSWO_PACKET_TYPE_DWT_PC_SAMPLE 
debg|decoder_swo.c:66->default_packet_handler(): Message 0, LIBSWO_PACKET_TYPE_OF 
debg|decoder_swo.c:66->default_packet_handler(): Message 0, LIBSwarn|processing.c:49->processing_data_out_default(): No callback defined yet
WO_PACKET_TYPE_DWT_PC_SAMPLE 
debg|decoder_swo.c:66->default_packet_handler(): Message 0, LIBSWO_PACKET_TYPE_OF 
debg|decoder_swo.c:66->default_packet_handler(): Message 0, LIBSWO_PACKET_TYPE_DWT_PC_SAMPLE 
debg|decoder_swo.c:66->default_packet_handler(): Message 0, LIBSWO_PACKET_TYPE_OF 
debg|decoder_swo.c:66->default_packet_handler(): Message 0, LIBSWO_PACKET_TYPE_DWT_PC_SAMPLE 
debg|decoder_swo.c:66->default_packet_handler(): Message 0, LIBSWO_PACKET_TYPE_OF 
debg|decoder_swo.c:66->default_packet_handler(): Message 0, LIBSWO_PACKET_TYPE_DWT_PC_SAMPLE 
debg|decoder_swo.c:66->default_packet_handler(): Message 0, LIBSWO_PACKET_TYPE_OF 
debg|decoder_swo.c:66->default_packet_handler(): Message 0, LIBSWO_PACKET_TYPE_DWT_PC_SAMPLE 
debg|decoder_swo.c:66->default_packet_handler(): Message 0, LIBSWO_PACKET_TYPE_OF 
debg|decoder_swo.c:66->default_packet_handler(): Message 0, LIBSWO_PACKET_TYPE_DWT_PC_SAMPLE 
debg|decoder_swo.c:66->default_packet_handler(): Message 0, LIBSWO_PACKET_TYPE_OF 
debg|decoder_swo.c:66->default_packet_handler(): Message 0, LIBSWO_PACKET_TYPE_DWT_PC_SAMPLE 
debg|decoder_swo.c:66->default_packet_handler(): Message 0, LIBSWO_PACKET_TYPE_OF 
debg|decoder_swo.c:66->default_packet_handler(): Message 0, LIBSWO_PACKET_TYPE_DWT_PC_SAMPLE 
debg|decoder_swo.c:66->default_packet_handler(): Message 0, LIBSWO_PACKET_TYPE_OF 
debg|decoder_swo.c:66->default_packet_handler(): Message 0, LIBSWO_PACKET_TYPE_DWT_PC_SAMPLE 
debg|decoder_swo.c:66->default_packet_handler(): Message 0, LIBSWO_PACKET_TYPE_OF 
debg|decoder_swo.c:66->default_packet_handler(): Message 0, LIBSWO_PACKET_TYPE_DWT_PC_SAMPLE 
debg|decoder_swo.c:66->default_packet_handler(): Message 0, LIBSWO_PACKET_TYPE_OF 
debg|decoder_swo.c:66->default_packet_handler(): Message 0, LIBSWO_PACKET_TYPE_DWT_PC_SAMPLE 
debg|decoder_swo.c:66->default_packet_handler(): Message 0, LIBSWO_PACKET_TYPE_OF 
debg|decoder_swo.c:66->default_packet_handler(): Message 0, LIBSWO_PACKET_TYPE_DWT_PC_SAMPLE 
debg|decoder_swo.c:66->default_packet_handler(): Message 0, LIBSWO_PACKET_TYPE_OF 
debg|decoder_swo.c:66->default_packet_handler(): Message 0, LIBSWO_PACKET_TYPE_DWT_PC_SAMPLE 
debg|decoder_swo.c:66->default_packet_handler(): Message 0, LIBSWO_PACKET_TYPE_OF 
debg|decoder_swo.c:66->default_packet_handler(): Message 0, LIBSWO_PACKET_TYPE_DWT_PC_SAMPLE 
debg|decoder_swo.c:66->default_packet_handler(): Message 0, LIBSWO_PACKET_TYPE_OF 
debg|decoder_swo.c:214->decoder_swo_data_in(): decoded 21
debg|decoder_swo.c:216->decoder_swo_data_in(): total size decoded 840
debg|decoder_swo.c:217->decoder_swo_data_in(): Total number of decoded packet 571
debg|decoder_swo.c:239->decoder_swo_data_out(): Number of data received 840
debg|pkt_converter.c:594->pkt_convert(): Number of packet received 21
debg|decoder_swo.c:66->default_packet_handler(): Message 0, LIBSWO_PACKET_TYPE_DWT_PC_SAMPLE 
debg|decoder_swo.c:66->default_packet_handler(): Message 0, LIBSWO_PACKET_TYPE_OF 
debg|decoder_swo.c:66->default_packet_handler(): Message 0, LIBSWO_PACKET_TYPE_DWT_PC_SAMPLE 
debg|decoder_swo.c:66->default_packet_handler(): Message 0, LIBSWO_PACKET_TYPE_OF 
debg|decoder_swo.c:66->default_packet_handler(): Message 0, LIBSWO_PACKET_TYPE_DWT_PC_SAMPLE 
debg|decoder_swo.c:66->default_packet_handler(): Message 0, LIBSWO_PACKET_TYPE_OF 
debg|decoder_swo.c:66->default_packet_handler(): Message 0, LIBSWO_PACKET_TYPE_DWT_PC_SAMPLE 
debg|decoder_swo.c:66->default_packet_handler(): Message 0, LIBSWO_PACKET_TYPE_OF 
debg|decoder_swo.c:66->default_packet_handler(): Message 0, LIBSWO_PACKET_TYPE_DWT_PC_SAMPLE 
debg|decoder_swo.c:66->default_packet_handler(): Message 0, LIBSWO_PACKET_TYPE_OF 
debg|decoder_swo.c:66->default_packet_handler(): Message 0, LIBSWO_PACKET_TYPE_DWT_PC_SAMPLE 
debg|decoder_swo.c:66->default_packet_handler(): Message 0, LIBSWO_PACKET_TYPE_OF 
debg|decoder_swo.c:66->default_packet_handler(): Message 0, LIBSWO_PACKET_TYPE_DWT_PC_SAMPLE 
debg|decoder_swo.c:66->default_packet_handler(): Message 0, LIBSWO_PACKET_TYPE_OF 
debg|decoder_swo.c:66->default_packet_handler(): Message 0, LIBSWO_PACKET_TYPE_DWT_PC_Swarn|processing.c:49->processing_data_out_default(): No callback defined yet
AMPLE 
debg|decoder_swo.c:66->default_packet_handler(): Message 0, LIBSWO_PACKET_TYPE_OF 
debg|decoder_swo.c:66->default_packet_handler(): Message 0, LIBSWO_PACKET_TYPE_DWT_PC_SAMPLE 
debg|decoder_swo.c:66->default_packet_handler(): Message 0, LIBSWO_PACKET_TYPE_OF 
debg|decoder_swo.c:66->default_packet_handler(): Message 0, LIBSWO_PACKET_TYPE_DWT_PC_SAMPLE 
debg|decoder_swo.c:66->default_packet_handler(): Message 0, LIBSWO_PACKET_TYPE_OF 
debg|decoder_swo.c:66->default_packet_handler(): Message 0, LIBSWO_PACKET_TYPE_DWT_PC_SAMPLE 
debg|decoder_swo.c:66->default_packet_handler(): Message 0, LIBSWO_PACKET_TYPE_OF 
debg|decoder_swo.c:66->default_packet_handler(): Message 0, LIBSWO_PACKET_TYPE_DWT_PC_SAMPLE 
debg|decoder_swo.c:66->default_packet_handler(): Message 0, LIBSWO_PACKET_TYPE_OF 
debg|decoder_swo.c:66->default_packet_handler(): Message 0, LIBSWO_PACKET_TYPE_DWT_PC_SAMPLE 
debg|decoder_swo.c:66->default_packet_handler(): Message 0, LIBSWO_PACKET_TYPE_OF 
debg|decoder_swo.c:66->default_packet_handler(): Message 0, LIBSWO_PACKET_TYPE_DWT_PC_SAMPLE 
debg|decoder_swo.c:66->default_packet_handler(): Message 0, LIBSWO_PACKET_TYPE_OF 
debg|decoder_swo.c:66->default_packet_handler(): Message 0, LIBSWO_PACKET_TYPE_DWT_PC_SAMPLE 
debg|decoder_swo.c:66->default_packet_handler(): Message 0, LIBSWO_PACKET_TYPE_OF 
debg|decoder_swo.c:66->default_packet_handler(): Message 0, LIBSWO_PACKET_TYPE_DWT_PC_SAMPLE 
debg|decoder_swo.c:66->default_packet_handler(): Message 0, LIBSWO_PACKET_TYPE_OF 
debg|decoder_swo.c:66->default_packet_handler(): Message 0, LIBSWO_PACKET_TYPE_DWT_PC_SAMPLE 
debg|decoder_swo.c:66->default_packet_handler(): Message 0, LIBSWO_PACKET_TYPE_OF 
debg|decoder_swo.c:66->default_packet_handler(): Message 0, LIBSWO_PACKET_TYPE_DWT_PC_SAMPLE 
debg|decoder_swo.c:66->default_packet_handler(): Message 0, LIBSWO_PACKET_TYPE_OF 
debg|decoder_swo.c:66->default_packet_handler(): Message 0, LIBSWO_PACKET_TYPE_DWT_PC_SAMPLE 
debg|decoder_swo.c:66->default_packet_handler(): Message 0, LIBSWO_PACKET_TYPE_OF 
debg|decoder_swo.c:66->default_packet_handler(): Message 0, LIBSWO_PACKET_TYPE_DWT_PC_SAMPLE 
debg|decoder_swo.c:66->default_packet_handler(): Message 0, LIBSWO_PACKET_TYPE_OF 
debg|decoder_swo.c:66->default_packet_handler(): Message 0, LIBSWO_PACKET_TYPE_DWT_PC_SAMPLE 
debg|decoder_swo.c:66->default_packet_handler(): Message 0, LIBSWO_PACKET_TYPE_OF 
debg|decoder_swo.c:214->decoder_swo_data_in(): decoded 21
debg|decoder_swo.c:216->decoder_swo_data_in(): total size decoded 840
debg|decoder_swo.c:217->decoder_swo_data_in(): Total number of decoded packet 592
debg|decoder_swo.c:239->decoder_swo_data_out(): Number of data received 840
debg|pkt_converter.c:594->pkt_convert(): Number of packet received 21
debg|decoder_swo.c:66->default_packet_handler(): Message 0, LIBSWO_PACKET_TYPE_DWT_PC_SAMPLE 
debg|decoder_swo.c:66->default_packet_handler(): Message 0, LIBSWO_PACKET_TYPE_OF 
debg|decoder_swo.c:66->default_packet_handler(): Message 0, LIBSWO_PACKET_TYPE_DWT_PC_SAMPLE 
debg|decoder_swo.c:66->default_packet_handler(): Message 0, LIBSWO_PACKET_TYPE_OF 
debg|decoder_swo.c:66->default_packet_handler(): Message 0, LIBSWO_PACKET_TYPE_DWT_PC_SAMPLE 
debg|decoder_swo.c:66->default_packet_handler(): Message 0, LIBSWO_PACKET_TYPE_OF 
debg|decoder_swo.c:66->default_packet_handler(): Message 0, LIBSWO_PACKET_TYPE_DWT_PC_SAMPLE 
debg|decoder_swo.c:66->default_packet_handler(): Message 0, LIBSWO_PACKET_TYPE_OF 
debg|decoder_swo.c:66->default_packet_handler(): Message 0, LIBSWO_PACKET_TYPE_DWT_PC_SAMPLE 
debg|decoder_swo.c:66->default_packet_handler(): Message 0, LIBSWO_PACKET_TYPE_OF 
debg|decoder_swo.c:66->default_packet_handler(): Message 0, LIBSWO_PACKET_TYPE_DWT_PC_SAMPLE 
debg|decoder_swo.c:66->default_packet_handler(): Message 0, LIBSWO_PACKET_TYPE_OF 
debg|decoder_swo.c:66->default_packet_handler(): Message 0, LIBSWO_PACKET_TYPE_DWT_PC_SAMPLE 
debg|decoder_swo.c:66->default_packet_handler(): Message 0, LIBSWO_PACKET_TYPE_OF 
debg|decoder_swo.c:66->default_packet_handler(): Message 0, LIBSWO_PACKET_TYPE_DWT_PC_SAMPLE 
debg|decoder_swowarn|processing.c:49->processing_data_out_default(): No callback defined yet
.c:66->default_packet_handler(): Message 0, LIBSWO_PACKET_TYPE_OF 
debg|decoder_swo.c:66->default_packet_handler(): Message 0, LIBSWO_PACKET_TYPE_DWT_PC_SAMPLE 
debg|decoder_swo.c:66->default_packet_handler(): Message 0, LIBSWO_PACKET_TYPE_OF 
debg|decoder_swo.c:66->default_packet_handler(): Message 0, LIBSWO_PACKET_TYPE_DWT_PC_SAMPLE 
debg|decoder_swo.c:66->default_packet_handler(): Message 0, LIBSWO_PACKET_TYPE_OF 
debg|decoder_swo.c:66->default_packet_handler(): Message 0, LIBSWO_PACKET_TYPE_DWT_PC_SAMPLE 
debg|decoder_swo.c:66->default_packet_handler(): Message 0, LIBSWO_PACKET_TYPE_OF 
debg|decoder_swo.c:66->default_packet_handler(): Message 0, LIBSWO_PACKET_TYPE_DWT_PC_SAMPLE 
debg|decoder_swo.c:66->default_packet_handler(): Message 0, LIBSWO_PACKET_TYPE_OF 
debg|decoder_swo.c:66->default_packet_handler(): Message 0, LIBSWO_PACKET_TYPE_DWT_PC_SAMPLE 
debg|decoder_swo.c:66->default_packet_handler(): Message 0, LIBSWO_PACKET_TYPE_OF 
debg|decoder_swo.c:66->default_packet_handler(): Message 0, LIBSWO_PACKET_TYPE_DWT_PC_SAMPLE 
debg|decoder_swo.c:66->default_packet_handler(): Message 0, LIBSWO_PACKET_TYPE_OF 
debg|decoder_swo.c:66->default_packet_handler(): Message 0, LIBSWO_PACKET_TYPE_DWT_PC_SAMPLE 
debg|decoder_swo.c:66->default_packet_handler(): Message 0, LIBSWO_PACKET_TYPE_OF 
debg|decoder_swo.c:66->default_packet_handler(): Message 0, LIBSWO_PACKET_TYPE_DWT_PC_SAMPLE 
debg|decoder_swo.c:66->default_packet_handler(): Message 0, LIBSWO_PACKET_TYPE_OF 
debg|decoder_swo.c:66->default_packet_handler(): Message 0, LIBSWO_PACKET_TYPE_DWT_PC_SAMPLE 
debg|decoder_swo.c:66->default_packet_handler(): Message 0, LIBSWO_PACKET_TYPE_OF 
debg|decoder_swo.c:66->default_packet_handler(): Message 0, LIBSWO_PACKET_TYPE_DWT_PC_SAMPLE 
debg|decoder_swo.c:66->default_packet_handler(): Message 0, LIBSWO_PACKET_TYPE_OF 
debg|decoder_swo.c:66->default_packet_handler(): Message 0, LIBSWO_PACKET_TYPE_DWT_PC_SAMPLE 
debg|decoder_swo.c:66->default_packet_handler(): Message 0, LIBSWO_PACKET_TYPE_OF 
debg|decoder_swo.c:66->default_packet_handler(): Message 0, LIBSWO_PACKET_TYPE_DWT_PC_SAMPLE 
debg|decoder_swo.c:66->default_packet_handler(): Message 0, LIBSWO_PACKET_TYPE_OF 
debg|decoder_swo.c:66->default_packet_handler(): Message 0, LIBSWO_PACKET_TYPE_DWT_PC_SAMPLE 
debg|decoder_swo.c:66->default_packet_handler(): Message 0, LIBSWO_PACKET_TYPE_OF 
debg|decoder_swo.c:66->default_packet_handler(): Message 0, LIBSWO_PACKET_TYPE_DWT_PC_SAMPLE 
debg|decoder_swo.c:214->decoder_swo_data_in(): decoded 22
debg|decoder_swo.c:216->decoder_swo_data_in(): total size decoded 880
debg|decoder_swo.c:217->decoder_swo_data_in(): Total number of decoded packet 614
debg|decoder_swo.c:239->decoder_swo_data_out(): Number of data received 880
debg|pkt_converter.c:594->pkt_convert(): Number of packet received 22
debg|decoder_swo.c:66->default_packet_handler(): Message 0, LIBSWO_PACKET_TYPE_OF 
debg|decoder_swo.c:66->default_packet_handler(): Message 0, LIBSWO_PACKET_TYPE_DWT_PC_SAMPLE 
debg|decoder_swo.c:66->default_packet_handler(): Message 0, LIBSWO_PACKET_TYPE_OF 
debg|decoder_swo.c:66->default_packet_handler(): Message 0, LIBSWO_PACKET_TYPE_DWT_PC_SAMPLE 
debg|decoder_swo.c:66->default_packet_handler(): Message 0, LIBSWO_PACKET_TYPE_OF 
debg|decoder_swo.c:66->default_packet_handler(): Message 0, LIBSWO_PACKET_TYPE_DWT_PC_SAMPLE 
debg|decoder_swo.c:66->default_packet_handler(): Message 0, LIBSWO_PACKET_TYPE_OF 
debg|decoder_swo.c:66->default_packet_handler(): Message 0, LIBSWO_PACKET_TYPE_DWT_PC_SAMPLE 
debg|decoder_swo.c:66->default_packet_handler(): Message 0, LIBSWO_PACKET_TYPE_OF 
debg|decoder_swo.c:66->default_packet_handler(): Message 0, LIBSWO_PACKET_TYPE_DWT_PC_SAMPLE 
debg|decoder_swo.c:66->default_packet_handler(): Message 0, LIBSWO_PACKET_TYPE_OF 
debg|decoder_swo.c:66->default_packet_handler(): Message 0, LIBSWO_PACKET_TYPE_DWT_PC_SAMPLE 
debg|decoder_swo.c:66->default_packet_handler(): Message 0, LIBSWO_PACKET_TYPE_OF 
debg|decoder_swo.c:66->default_packet_handler(): Message 0, LIBSWO_PACKET_TYPE_DWT_PC_SAMPLE 
debg|decoder_swo.c:66->default_packet_hwarn|processing.c:49->processing_data_out_default(): No callback defined yet
andler(): Message 0, LIBSWO_PACKET_TYPE_OF 
debg|decoder_swo.c:66->default_packet_handler(): Message 0, LIBSWO_PACKET_TYPE_DWT_PC_SAMPLE 
debg|decoder_swo.c:66->default_packet_handler(): Message 0, LIBSWO_PACKET_TYPE_OF 
debg|decoder_swo.c:66->default_packet_handler(): Message 0, LIBSWO_PACKET_TYPE_DWT_PC_SAMPLE 
debg|decoder_swo.c:66->default_packet_handler(): Message 0, LIBSWO_PACKET_TYPE_OF 
debg|decoder_swo.c:66->default_packet_handler(): Message 0, LIBSWO_PACKET_TYPE_DWT_PC_SAMPLE 
debg|decoder_swo.c:66->default_packet_handler(): Message 0, LIBSWO_PACKET_TYPE_OF 
debg|decoder_swo.c:66->default_packet_handler(): Message 0, LIBSWO_PACKET_TYPE_DWT_PC_SAMPLE 
debg|decoder_swo.c:66->default_packet_handler(): Message 0, LIBSWO_PACKET_TYPE_OF 
debg|decoder_swo.c:66->default_packet_handler(): Message 0, LIBSWO_PACKET_TYPE_DWT_PC_SAMPLE 
debg|decoder_swo.c:66->default_packet_handler(): Message 0, LIBSWO_PACKET_TYPE_OF 
debg|decoder_swo.c:66->default_packet_handler(): Message 0, LIBSWO_PACKET_TYPE_DWT_PC_SAMPLE 
debg|decoder_swo.c:66->default_packet_handler(): Message 0, LIBSWO_PACKET_TYPE_OF 
debg|decoder_swo.c:66->default_packet_handler(): Message 0, LIBSWO_PACKET_TYPE_DWT_PC_SAMPLE 
debg|decoder_swo.c:66->default_packet_handler(): Message 0, LIBSWO_PACKET_TYPE_OF 
debg|decoder_swo.c:66->default_packet_handler(): Message 0, LIBSWO_PACKET_TYPE_DWT_PC_SAMPLE 
debg|decoder_swo.c:66->default_packet_handler(): Message 0, LIBSWO_PACKET_TYPE_OF 
debg|decoder_swo.c:66->default_packet_handler(): Message 0, LIBSWO_PACKET_TYPE_DWT_PC_SAMPLE 
debg|decoder_swo.c:66->default_packet_handler(): Message 0, LIBSWO_PACKET_TYPE_OF 
debg|decoder_swo.c:66->default_packet_handler(): Message 0, LIBSWO_PACKET_TYPE_DWT_PC_SAMPLE 
debg|decoder_swo.c:66->default_packet_handler(): Message 0, LIBSWO_PACKET_TYPE_OF 
debg|decoder_swo.c:66->default_packet_handler(): Message 0, LIBSWO_PACKET_TYPE_DWT_PC_SAMPLE 
debg|decoder_swo.c:66->default_packet_handler(): Message 0, LIBSWO_PACKET_TYPE_OF 
debg|decoder_swo.c:66->default_packet_handler(): Message 0, LIBSWO_PACKET_TYPE_DWT_PC_SAMPLE 
debg|decoder_swo.c:66->default_packet_handler(): Message 0, LIBSWO_PACKET_TYPE_OF 
debg|decoder_swo.c:66->default_packet_handler(): Message 0, LIBSWO_PACKET_TYPE_DWT_PC_SAMPLE 
debg|decoder_swo.c:66->default_packet_handler(): Message 0, LIBSWO_PACKET_TYPE_OF 
debg|decoder_swo.c:66->default_packet_handler(): Message 0, LIBSWO_PACKET_TYPE_DWT_PC_SAMPLE 
debg|decoder_swo.c:66->default_packet_handler(): Message 0, LIBSWO_PACKET_TYPE_OF 
debg|decoder_swo.c:214->decoder_swo_data_in(): decoded 21
debg|decoder_swo.c:216->decoder_swo_data_in(): total size decoded 840
debg|decoder_swo.c:217->decoder_swo_data_in(): Total number of decoded packet 635
debg|decoder_swo.c:239->decoder_swo_data_out(): Number of data received 840
debg|pkt_converter.c:594->pkt_convert(): Number of packet received 21
debg|decoder_swo.c:66->default_packet_handler(): Message 0, LIBSWO_PACKET_TYPE_DWT_PC_SAMPLE 
debg|decoder_swo.c:66->default_packet_handler(): Message 0, LIBSWO_PACKET_TYPE_OF 
debg|decoder_swo.c:66->default_packet_handler(): Message 0, LIBSWO_PACKET_TYPE_DWT_PC_SAMPLE 
debg|decoder_swo.c:66->default_packet_handler(): Message 0, LIBSWO_PACKET_TYPE_OF 
debg|decoder_swo.c:66->default_packet_handler(): Message 0, LIBSWO_PACKET_TYPE_DWT_PC_SAMPLE 
debg|decoder_swo.c:66->default_packet_handler(): Message 0, LIBSWO_PACKET_TYPE_OF 
debg|decoder_swo.c:66->default_packet_handler(): Message 0, LIBSWO_PACKET_TYPE_DWT_PC_SAMPLE 
debg|decoder_swo.c:66->default_packet_handler(): Message 0, LIBSWO_PACKET_TYPE_OF 
debg|decoder_swo.c:66->default_packet_handler(): Message 0, LIBSWO_PACKET_TYPE_DWT_PC_SAMPLE 
debg|decoder_swo.c:66->default_packet_handler(): Message 0, LIBSWO_PACKET_TYPE_OF 
debg|decoder_swo.c:66->default_packet_handler(): Message 0, LIBSWO_PACKET_TYPE_DWT_PC_SAMPLE 
debg|decoder_swo.c:66->default_packet_handler(): Message 0, LIBSWO_PACKET_TYPE_OF 
debg|decoder_swo.c:66->default_packet_handler(): Message 0, LIBSWO_PACKET_TYPE_DWT_PC_SAMPLE 
debg|decoder_swo.c:66->default_packet_handler(): Message 0, LIwarn|processing.c:49->processing_data_out_default(): No callback defined yet
BSWO_PACKET_TYPE_OF 
debg|decoder_swo.c:66->default_packet_handler(): Message 0, LIBSWO_PACKET_TYPE_DWT_PC_SAMPLE 
debg|decoder_swo.c:66->default_packet_handler(): Message 0, LIBSWO_PACKET_TYPE_OF 
debg|decoder_swo.c:66->default_packet_handler(): Message 0, LIBSWO_PACKET_TYPE_DWT_PC_SAMPLE 
debg|decoder_swo.c:66->default_packet_handler(): Message 0, LIBSWO_PACKET_TYPE_OF 
debg|decoder_swo.c:66->default_packet_handler(): Message 0, LIBSWO_PACKET_TYPE_DWT_PC_SAMPLE 
debg|decoder_swo.c:66->default_packet_handler(): Message 0, LIBSWO_PACKET_TYPE_OF 
debg|decoder_swo.c:66->default_packet_handler(): Message 0, LIBSWO_PACKET_TYPE_DWT_PC_SAMPLE 
debg|decoder_swo.c:66->default_packet_handler(): Message 0, LIBSWO_PACKET_TYPE_OF 
debg|decoder_swo.c:66->default_packet_handler(): Message 0, LIBSWO_PACKET_TYPE_DWT_PC_SAMPLE 
debg|decoder_swo.c:66->default_packet_handler(): Message 0, LIBSWO_PACKET_TYPE_OF 
debg|decoder_swo.c:66->default_packet_handler(): Message 0, LIBSWO_PACKET_TYPE_DWT_PC_SAMPLE 
debg|decoder_swo.c:66->default_packet_handler(): Message 0, LIBSWO_PACKET_TYPE_OF 
debg|decoder_swo.c:66->default_packet_handler(): Message 0, LIBSWO_PACKET_TYPE_DWT_PC_SAMPLE 
debg|decoder_swo.c:66->default_packet_handler(): Message 0, LIBSWO_PACKET_TYPE_OF 
debg|decoder_swo.c:66->default_packet_handler(): Message 0, LIBSWO_PACKET_TYPE_DWT_PC_SAMPLE 
debg|decoder_swo.c:66->default_packet_handler(): Message 0, LIBSWO_PACKET_TYPE_OF 
debg|decoder_swo.c:66->default_packet_handler(): Message 0, LIBSWO_PACKET_TYPE_DWT_PC_SAMPLE 
debg|decoder_swo.c:66->default_packet_handler(): Message 0, LIBSWO_PACKET_TYPE_OF 
debg|decoder_swo.c:66->default_packet_handler(): Message 0, LIBSWO_PACKET_TYPE_DWT_PC_SAMPLE 
debg|decoder_swo.c:66->default_packet_handler(): Message 0, LIBSWO_PACKET_TYPE_OF 
debg|decoder_swo.c:66->default_packet_handler(): Message 0, LIBSWO_PACKET_TYPE_DWT_PC_SAMPLE 
debg|decoder_swo.c:66->default_packet_handler(): Message 0, LIBSWO_PACKET_TYPE_OF 
debg|decoder_swo.c:66->default_packet_handler(): Message 0, LIBSWO_PACKET_TYPE_DWT_PC_SAMPLE 
debg|decoder_swo.c:66->default_packet_handler(): Message 0, LIBSWO_PACKET_TYPE_OF 
debg|decoder_swo.c:66->default_packet_handler(): Message 0, LIBSWO_PACKET_TYPE_DWT_PC_SAMPLE 
debg|decoder_swo.c:66->default_packet_handler(): Message 0, LIBSWO_PACKET_TYPE_OF 
debg|decoder_swo.c:66->default_packet_handler(): Message 0, LIBSWO_PACKET_TYPE_DWT_PC_SAMPLE 
debg|decoder_swo.c:66->default_packet_handler(): Message 0, LIBSWO_PACKET_TYPE_OF 
debg|decoder_swo.c:214->decoder_swo_data_in(): decoded 21
debg|decoder_swo.c:216->decoder_swo_data_in(): total size decoded 840
debg|decoder_swo.c:217->decoder_swo_data_in(): Total number of decoded packet 656
debg|decoder_swo.c:239->decoder_swo_data_out(): Number of data received 840
debg|pkt_converter.c:594->pkt_convert(): Number of packet received 21
debg|decoder_swo.c:66->default_packet_handler(): Message 0, LIBSWO_PACKET_TYPE_DWT_PC_SAMPLE 
debg|decoder_swo.c:66->default_packet_handler(): Message 0, LIBSWO_PACKET_TYPE_OF 
debg|decoder_swo.c:66->default_packet_handler(): Message 0, LIBSWO_PACKET_TYPE_DWT_PC_SAMPLE 
debg|decoder_swo.c:66->default_packet_handler(): Message 0, LIBSWO_PACKET_TYPE_OF 
debg|decoder_swo.c:66->default_packet_handler(): Message 0, LIBSWO_PACKET_TYPE_DWT_PC_SAMPLE 
debg|decoder_swo.c:66->default_packet_handler(): Message 0, LIBSWO_PACKET_TYPE_OF 
debg|decoder_swo.c:66->default_packet_handler(): Message 0, LIBSWO_PACKET_TYPE_DWT_PC_SAMPLE 
debg|decoder_swo.c:66->default_packet_handler(): Message 0, LIBSWO_PACKET_TYPE_OF 
debg|decoder_swo.c:66->default_packet_handler(): Message 0, LIBSWO_PACKET_TYPE_DWT_PC_SAMPLE 
debg|decoder_swo.c:66->default_packet_handler(): Message 0, LIBSWO_PACKET_TYPE_OF 
debg|decoder_swo.c:66->default_packet_handler(): Message 0, LIBSWO_PACKET_TYPE_DWT_PC_SAMPLE 
debg|decoder_swo.c:66->default_packet_handler(): Message 0, LIBSWO_PACKET_TYPE_OF 
debg|decoder_swo.c:66->default_packet_handler(): Message 0, LIBSWO_PACKET_TYPE_DWT_PC_SAMPLE 
debg|decoder_swo.c:66->default_packet_handler(): Message 0, LIBSWO_PACKET_TYPE_OF 
dewarn|processing.c:49->processing_data_out_default(): No callback defined yet
bg|decoder_swo.c:66->default_packet_handler(): Message 0, LIBSWO_PACKET_TYPE_DWT_PC_SAMPLE 
debg|decoder_swo.c:66->default_packet_handler(): Message 0, LIBSWO_PACKET_TYPE_OF 
debg|decoder_swo.c:66->default_packet_handler(): Message 0, LIBSWO_PACKET_TYPE_DWT_PC_SAMPLE 
debg|decoder_swo.c:66->default_packet_handler(): Message 0, LIBSWO_PACKET_TYPE_OF 
debg|decoder_swo.c:66->default_packet_handler(): Message 0, LIBSWO_PACKET_TYPE_DWT_PC_SAMPLE 
debg|decoder_swo.c:66->default_packet_handler(): Message 0, LIBSWO_PACKET_TYPE_OF 
debg|decoder_swo.c:66->default_packet_handler(): Message 0, LIBSWO_PACKET_TYPE_DWT_PC_SAMPLE 
debg|decoder_swo.c:66->default_packet_handler(): Message 0, LIBSWO_PACKET_TYPE_OF 
debg|decoder_swo.c:66->default_packet_handler(): Message 0, LIBSWO_PACKET_TYPE_DWT_PC_SAMPLE 
debg|decoder_swo.c:66->default_packet_handler(): Message 0, LIBSWO_PACKET_TYPE_OF 
debg|decoder_swo.c:66->default_packet_handler(): Message 0, LIBSWO_PACKET_TYPE_DWT_PC_SAMPLE 
debg|decoder_swo.c:66->default_packet_handler(): Message 0, LIBSWO_PACKET_TYPE_OF 
debg|decoder_swo.c:66->default_packet_handler(): Message 0, LIBSWO_PACKET_TYPE_DWT_PC_SAMPLE 
debg|decoder_swo.c:66->default_packet_handler(): Message 0, LIBSWO_PACKET_TYPE_OF 
debg|decoder_swo.c:66->default_packet_handler(): Message 0, LIBSWO_PACKET_TYPE_DWT_PC_SAMPLE 
debg|decoder_swo.c:66->default_packet_handler(): Message 0, LIBSWO_PACKET_TYPE_OF 
debg|decoder_swo.c:66->default_packet_handler(): Message 0, LIBSWO_PACKET_TYPE_DWT_PC_SAMPLE 
debg|decoder_swo.c:66->default_packet_handler(): Message 0, LIBSWO_PACKET_TYPE_OF 
debg|decoder_swo.c:66->default_packet_handler(): Message 0, LIBSWO_PACKET_TYPE_DWT_PC_SAMPLE 
debg|decoder_swo.c:66->default_packet_handler(): Message 0, LIBSWO_PACKET_TYPE_OF 
debg|decoder_swo.c:66->default_packet_handler(): Message 0, LIBSWO_PACKET_TYPE_DWT_PC_SAMPLE 
debg|decoder_swo.c:66->default_packet_handler(): Message 0, LIBSWO_PACKET_TYPE_OF 
debg|decoder_swo.c:66->default_packet_handler(): Message 0, LIBSWO_PACKET_TYPE_DWT_PC_SAMPLE 
debg|decoder_swo.c:66->default_packet_handler(): Message 0, LIBSWO_PACKET_TYPE_OF 
debg|decoder_swo.c:66->default_packet_handler(): Message 0, LIBSWO_PACKET_TYPE_DWT_PC_SAMPLE 
debg|decoder_swo.c:66->default_packet_handler(): Message 0, LIBSWO_PACKET_TYPE_OF 
debg|decoder_swo.c:66->default_packet_handler(): Message 0, LIBSWO_PACKET_TYPE_DWT_PC_SAMPLE 
debg|decoder_swo.c:66->default_packet_handler(): Message 0, LIBSWO_PACKET_TYPE_OF 
debg|decoder_swo.c:66->default_packet_handler(): Message 0, LIBSWO_PACKET_TYPE_DWT_PC_SAMPLE 
debg|decoder_swo.c:214->decoder_swo_data_in(): decoded 22
debg|decoder_swo.c:216->decoder_swo_data_in(): total size decoded 880
debg|decoder_swo.c:217->decoder_swo_data_in(): Total number of decoded packet 678
debg|decoder_swo.c:239->decoder_swo_data_out(): Number of data received 880
debg|pkt_converter.c:594->pkt_convert(): Number of packet received 22
debg|decoder_swo.c:66->default_packet_handler(): Message 0, LIBSWO_PACKET_TYPE_OF 
debg|decoder_swo.c:66->default_packet_handler(): Message 0, LIBSWO_PACKET_TYPE_DWT_PC_SAMPLE 
debg|decoder_swo.c:66->default_packet_handler(): Message 0, LIBSWO_PACKET_TYPE_OF 
debg|decoder_swo.c:66->default_packet_handler(): Message 0, LIBSWO_PACKET_TYPE_DWT_PC_SAMPLE 
debg|decoder_swo.c:66->default_packet_handler(): Message 0, LIBSWO_PACKET_TYPE_OF 
debg|decoder_swo.c:66->default_packet_handler(): Message 0, LIBSWO_PACKET_TYPE_DWT_PC_SAMPLE 
debg|decoder_swo.c:66->default_packet_handler(): Message 0, LIBSWO_PACKET_TYPE_OF 
debg|decoder_swo.c:66->default_packet_handler(): Message 0, LIBSWO_PACKET_TYPE_DWT_PC_SAMPLE 
debg|decoder_swo.c:66->default_packet_handler(): Message 0, LIBSWO_PACKET_TYPE_OF 
debg|decoder_swo.c:66->default_packet_handler(): Message 0, LIBSWO_PACKET_TYPE_DWT_PC_SAMPLE 
debg|decoder_swo.c:66->default_packet_handler(): Message 0, LIBSWO_PACKET_TYPE_OF 
debg|decoder_swo.c:66->default_packet_handler(): Message 0, LIBSWO_PACKET_TYPE_DWT_PC_SAMPLE 
debg|decoder_swo.c:66->default_packet_handler(): Message 0, LIBSWO_PACKET_TYPE_OF 
debg|decoder_swo.c:66->dewarn|processing.c:49->processing_data_out_default(): No callback defined yet
fault_packet_handler(): Message 0, LIBSWO_PACKET_TYPE_DWT_PC_SAMPLE 
debg|decoder_swo.c:66->default_packet_handler(): Message 0, LIBSWO_PACKET_TYPE_OF 
debg|decoder_swo.c:66->default_packet_handler(): Message 0, LIBSWO_PACKET_TYPE_DWT_PC_SAMPLE 
debg|decoder_swo.c:66->default_packet_handler(): Message 0, LIBSWO_PACKET_TYPE_OF 
debg|decoder_swo.c:66->default_packet_handler(): Message 0, LIBSWO_PACKET_TYPE_DWT_PC_SAMPLE 
debg|decoder_swo.c:66->default_packet_handler(): Message 0, LIBSWO_PACKET_TYPE_OF 
debg|decoder_swo.c:66->default_packet_handler(): Message 0, LIBSWO_PACKET_TYPE_DWT_PC_SAMPLE 
debg|decoder_swo.c:66->default_packet_handler(): Message 0, LIBSWO_PACKET_TYPE_OF 
debg|decoder_swo.c:66->default_packet_handler(): Message 0, LIBSWO_PACKET_TYPE_DWT_PC_SAMPLE 
debg|decoder_swo.c:66->default_packet_handler(): Message 0, LIBSWO_PACKET_TYPE_OF 
debg|decoder_swo.c:66->default_packet_handler(): Message 0, LIBSWO_PACKET_TYPE_DWT_PC_SAMPLE 
debg|decoder_swo.c:66->default_packet_handler(): Message 0, LIBSWO_PACKET_TYPE_OF 
debg|decoder_swo.c:66->default_packet_handler(): Message 0, LIBSWO_PACKET_TYPE_DWT_PC_SAMPLE 
debg|decoder_swo.c:66->default_packet_handler(): Message 0, LIBSWO_PACKET_TYPE_OF 
debg|decoder_swo.c:66->default_packet_handler(): Message 0, LIBSWO_PACKET_TYPE_DWT_PC_SAMPLE 
debg|decoder_swo.c:66->default_packet_handler(): Message 0, LIBSWO_PACKET_TYPE_OF 
debg|decoder_swo.c:66->default_packet_handler(): Message 0, LIBSWO_PACKET_TYPE_DWT_PC_SAMPLE 
debg|decoder_swo.c:66->default_packet_handler(): Message 0, LIBSWO_PACKET_TYPE_OF 
debg|decoder_swo.c:66->default_packet_handler(): Message 0, LIBSWO_PACKET_TYPE_DWT_PC_SAMPLE 
debg|decoder_swo.c:66->default_packet_handler(): Message 0, LIBSWO_PACKET_TYPE_OF 
debg|decoder_swo.c:66->default_packet_handler(): Message 0, LIBSWO_PACKET_TYPE_DWT_PC_SAMPLE 
debg|decoder_swo.c:66->default_packet_handler(): Message 0, LIBSWO_PACKET_TYPE_OF 
debg|decoder_swo.c:66->default_packet_handler(): Message 0, LIBSWO_PACKET_TYPE_DWT_PC_SAMPLE 
debg|decoder_swo.c:66->default_packet_handler(): Message 0, LIBSWO_PACKET_TYPE_OF 
debg|decoder_swo.c:66->default_packet_handler(): Message 0, LIBSWO_PACKET_TYPE_DWT_PC_SAMPLE 
debg|decoder_swo.c:66->default_packet_handler(): Message 0, LIBSWO_PACKET_TYPE_OF 
debg|decoder_swo.c:66->default_packet_handler(): Message 0, LIBSWO_PACKET_TYPE_DWT_PC_SAMPLE 
debg|decoder_swo.c:66->default_packet_handler(): Message 0, LIBSWO_PACKET_TYPE_OF 
debg|decoder_swo.c:66->default_packet_handler(): Message 0, LIBSWO_PACKET_TYPE_DWT_PC_SAMPLE 
debg|decoder_swo.c:66->default_packet_handler(): Message 0, LIBSWO_PACKET_TYPE_OF 
debg|decoder_swo.c:214->decoder_swo_data_in(): decoded 21
debg|decoder_swo.c:216->decoder_swo_data_in(): total size decoded 840
debg|decoder_swo.c:217->decoder_swo_data_in(): Total number of decoded packet 699
debg|decoder_swo.c:239->decoder_swo_data_out(): Number of data received 840
debg|pkt_converter.c:594->pkt_convert(): Number of packet received 21
debg|decoder_swo.c:66->default_packet_handler(): Message 0, LIBSWO_PACKET_TYPE_DWT_PC_SAMPLE 
debg|decoder_swo.c:66->default_packet_handler(): Message 0, LIBSWO_PACKET_TYPE_OF 
debg|decoder_swo.c:66->default_packet_handler(): Message 0, LIBSWO_PACKET_TYPE_DWT_PC_SAMPLE 
debg|decoder_swo.c:66->default_packet_handler(): Message 0, LIBSWO_PACKET_TYPE_OF 
debg|decoder_swo.c:66->default_packet_handler(): Message 0, LIBSWO_PACKET_TYPE_DWT_PC_SAMPLE 
debg|decoder_swo.c:66->default_packet_handler(): Message 0, LIBSWO_PACKET_TYPE_OF 
debg|decoder_swo.c:66->default_packet_handler(): Message 0, LIBSWO_PACKET_TYPE_DWT_PC_SAMPLE 
debg|decoder_swo.c:66->default_packet_handler(): Message 0, LIBSWO_PACKET_TYPE_OF 
debg|decoder_swo.c:66->default_packet_handler(): Message 0, LIBSWO_PACKET_TYPE_DWT_PC_SAMPLE 
debg|decoder_swo.c:66->default_packet_handler(): Message 0, LIBSWO_PACKET_TYPE_OF 
debg|decoder_swo.c:66->default_packet_handler(): Message 0, LIBSWO_PACKET_TYPE_DWT_PC_SAMPLE 
debg|decoder_swo.c:66->default_packet_handler(): Message 0, LIBSWO_PACKET_TYPE_OF 
debg|decoder_swo.c:66->default_packet_handler():warn|processing.c:49->processing_data_out_default(): No callback defined yet
 Message 0, LIBSWO_PACKET_TYPE_DWT_PC_SAMPLE 
debg|decoder_swo.c:66->default_packet_handler(): Message 0, LIBSWO_PACKET_TYPE_OF 
debg|decoder_swo.c:66->default_packet_handler(): Message 0, LIBSWO_PACKET_TYPE_DWT_PC_SAMPLE 
debg|decoder_swo.c:66->default_packet_handler(): Message 0, LIBSWO_PACKET_TYPE_OF 
debg|decoder_swo.c:66->default_packet_handler(): Message 0, LIBSWO_PACKET_TYPE_DWT_PC_SAMPLE 
debg|decoder_swo.c:66->default_packet_handler(): Message 0, LIBSWO_PACKET_TYPE_OF 
debg|decoder_swo.c:66->default_packet_handler(): Message 0, LIBSWO_PACKET_TYPE_DWT_PC_SAMPLE 
debg|decoder_swo.c:66->default_packet_handler(): Message 0, LIBSWO_PACKET_TYPE_OF 
debg|decoder_swo.c:66->default_packet_handler(): Message 0, LIBSWO_PACKET_TYPE_DWT_PC_SAMPLE 
debg|decoder_swo.c:66->default_packet_handler(): Message 0, LIBSWO_PACKET_TYPE_OF 
debg|decoder_swo.c:66->default_packet_handler(): Message 0, LIBSWO_PACKET_TYPE_DWT_PC_SAMPLE 
debg|decoder_swo.c:66->default_packet_handler(): Message 0, LIBSWO_PACKET_TYPE_OF 
debg|decoder_swo.c:66->default_packet_handler(): Message 0, LIBSWO_PACKET_TYPE_DWT_PC_SAMPLE 
debg|decoder_swo.c:66->default_packet_handler(): Message 0, LIBSWO_PACKET_TYPE_OF 
debg|decoder_swo.c:66->default_packet_handler(): Message 0, LIBSWO_PACKET_TYPE_DWT_PC_SAMPLE 
debg|decoder_swo.c:66->default_packet_handler(): Message 0, LIBSWO_PACKET_TYPE_OF 
debg|decoder_swo.c:66->default_packet_handler(): Message 0, LIBSWO_PACKET_TYPE_DWT_PC_SAMPLE 
debg|decoder_swo.c:66->default_packet_handler(): Message 0, LIBSWO_PACKET_TYPE_OF 
debg|decoder_swo.c:66->default_packet_handler(): Message 0, LIBSWO_PACKET_TYPE_DWT_PC_SAMPLE 
debg|decoder_swo.c:66->default_packet_handler(): Message 0, LIBSWO_PACKET_TYPE_OF 
debg|decoder_swo.c:66->default_packet_handler(): Message 0, LIBSWO_PACKET_TYPE_DWT_PC_SAMPLE 
debg|decoder_swo.c:66->default_packet_handler(): Message 0, LIBSWO_PACKET_TYPE_OF 
debg|decoder_swo.c:66->default_packet_handler(): Message 0, LIBSWO_PACKET_TYPE_DWT_PC_SAMPLE 
debg|decoder_swo.c:66->default_packet_handler(): Message 0, LIBSWO_PACKET_TYPE_OF 
debg|decoder_swo.c:66->default_packet_handler(): Message 0, LIBSWO_PACKET_TYPE_DWT_PC_SAMPLE 
debg|decoder_swo.c:66->default_packet_handler(): Message 0, LIBSWO_PACKET_TYPE_OF 
debg|decoder_swo.c:66->default_packet_handler(): Message 0, LIBSWO_PACKET_TYPE_DWT_PC_SAMPLE 
debg|decoder_swo.c:66->default_packet_handler(): Message 0, LIBSWO_PACKET_TYPE_OF 
debg|decoder_swo.c:66->default_packet_handler(): Message 0, LIBSWO_PACKET_TYPE_DWT_PC_SAMPLE 
debg|decoder_swo.c:66->default_packet_handler(): Message 0, LIBSWO_PACKET_TYPE_OF 
debg|decoder_swo.c:214->decoder_swo_data_in(): decoded 21
debg|decoder_swo.c:216->decoder_swo_data_in(): total size decoded 840
debg|decoder_swo.c:217->decoder_swo_data_in(): Total number of decoded packet 720
debg|decoder_swo.c:239->decoder_swo_data_out(): Number of data received 840
debg|pkt_converter.c:594->pkt_convert(): Number of packet received 21
debg|decoder_swo.c:66->default_packet_handler(): Message 0, LIBSWO_PACKET_TYPE_DWT_PC_SAMPLE 
debg|decoder_swo.c:66->default_packet_handler(): Message 0, LIBSWO_PACKET_TYPE_OF 
debg|decoder_swo.c:66->default_packet_handler(): Message 0, LIBSWO_PACKET_TYPE_DWT_PC_SAMPLE 
debg|decoder_swo.c:66->default_packet_handler(): Message 0, LIBSWO_PACKET_TYPE_OF 
debg|decoder_swo.c:66->default_packet_handler(): Message 0, LIBSWO_PACKET_TYPE_DWT_PC_SAMPLE 
debg|decoder_swo.c:66->default_packet_handler(): Message 0, LIBSWO_PACKET_TYPE_OF 
debg|decoder_swo.c:66->default_packet_handler(): Message 0, LIBSWO_PACKET_TYPE_DWT_PC_SAMPLE 
debg|decoder_swo.c:66->default_packet_handler(): Message 0, LIBSWO_PACKET_TYPE_OF 
debg|decoder_swo.c:66->default_packet_handler(): Message 0, LIBSWO_PACKET_TYPE_DWT_PC_SAMPLE 
debg|decoder_swo.c:66->default_packet_handler(): Message 0, LIBSWO_PACKET_TYPE_OF 
debg|decoder_swo.c:66->default_packet_handler(): Message 0, LIBSWO_PACKET_TYPE_DWT_PC_SAMPLE 
debg|decoder_swo.c:66->default_packet_handler(): Message 0, LIBSWO_PACKET_TYPE_OF 
debg|decoder_swo.c:66->default_packet_handler(): Message 0, LIBSWO_PACKwarn|processing.c:49->processing_data_out_default(): No callback defined yet
ET_TYPE_DWT_PC_SAMPLE 
debg|decoder_swo.c:66->default_packet_handler(): Message 0, LIBSWO_PACKET_TYPE_OF 
debg|decoder_swo.c:66->default_packet_handler(): Message 0, LIBSWO_PACKET_TYPE_DWT_PC_SAMPLE 
debg|decoder_swo.c:66->default_packet_handler(): Message 0, LIBSWO_PACKET_TYPE_OF 
debg|decoder_swo.c:66->default_packet_handler(): Message 0, LIBSWO_PACKET_TYPE_DWT_PC_SAMPLE 
debg|decoder_swo.c:66->default_packet_handler(): Message 0, LIBSWO_PACKET_TYPE_OF 
debg|decoder_swo.c:66->default_packet_handler(): Message 0, LIBSWO_PACKET_TYPE_DWT_PC_SAMPLE 
debg|decoder_swo.c:66->default_packet_handler(): Message 0, LIBSWO_PACKET_TYPE_OF 
debg|decoder_swo.c:66->default_packet_handler(): Message 0, LIBSWO_PACKET_TYPE_DWT_PC_SAMPLE 
debg|decoder_swo.c:66->default_packet_handler(): Message 0, LIBSWO_PACKET_TYPE_OF 
debg|decoder_swo.c:66->default_packet_handler(): Message 0, LIBSWO_PACKET_TYPE_DWT_PC_SAMPLE 
debg|decoder_swo.c:66->default_packet_handler(): Message 0, LIBSWO_PACKET_TYPE_OF 
debg|decoder_swo.c:66->default_packet_handler(): Message 0, LIBSWO_PACKET_TYPE_DWT_PC_SAMPLE 
debg|decoder_swo.c:66->default_packet_handler(): Message 0, LIBSWO_PACKET_TYPE_OF 
debg|decoder_swo.c:66->default_packet_handler(): Message 0, LIBSWO_PACKET_TYPE_DWT_PC_SAMPLE 
debg|decoder_swo.c:66->default_packet_handler(): Message 0, LIBSWO_PACKET_TYPE_OF 
debg|decoder_swo.c:66->default_packet_handler(): Message 0, LIBSWO_PACKET_TYPE_DWT_PC_SAMPLE 
debg|decoder_swo.c:66->default_packet_handler(): Message 0, LIBSWO_PACKET_TYPE_OF 
debg|decoder_swo.c:66->default_packet_handler(): Message 0, LIBSWO_PACKET_TYPE_DWT_PC_SAMPLE 
debg|decoder_swo.c:66->default_packet_handler(): Message 0, LIBSWO_PACKET_TYPE_OF 
debg|decoder_swo.c:66->default_packet_handler(): Message 0, LIBSWO_PACKET_TYPE_DWT_PC_SAMPLE 
debg|decoder_swo.c:66->default_packet_handler(): Message 0, LIBSWO_PACKET_TYPE_OF 
debg|decoder_swo.c:66->default_packet_handler(): Message 0, LIBSWO_PACKET_TYPE_DWT_PC_SAMPLE 
debg|decoder_swo.c:66->default_packet_handler(): Message 0, LIBSWO_PACKET_TYPE_OF 
debg|decoder_swo.c:66->default_packet_handler(): Message 0, LIBSWO_PACKET_TYPE_DWT_PC_SAMPLE 
debg|decoder_swo.c:66->default_packet_handler(): Message 0, LIBSWO_PACKET_TYPE_OF 
debg|decoder_swo.c:66->default_packet_handler(): Message 0, LIBSWO_PACKET_TYPE_DWT_PC_SAMPLE 
debg|decoder_swo.c:66->default_packet_handler(): Message 0, LIBSWO_PACKET_TYPE_OF 
debg|decoder_swo.c:66->default_packet_handler(): Message 0, LIBSWO_PACKET_TYPE_DWT_PC_SAMPLE 
debg|decoder_swo.c:66->default_packet_handler(): Message 0, LIBSWO_PACKET_TYPE_OF 
debg|decoder_swo.c:66->default_packet_handler(): Message 0, LIBSWO_PACKET_TYPE_DWT_PC_SAMPLE 
debg|decoder_swo.c:214->decoder_swo_data_in(): decoded 22
debg|decoder_swo.c:216->decoder_swo_data_in(): total size decoded 880
debg|decoder_swo.c:217->decoder_swo_data_in(): Total number of decoded packet 742
debg|decoder_swo.c:239->decoder_swo_data_out(): Number of data received 880
debg|pkt_converter.c:594->pkt_convert(): Number of packet received 22
debg|decoder_swo.c:66->default_packet_handler(): Message 0, LIBSWO_PACKET_TYPE_OF 
debg|decoder_swo.c:66->default_packet_handler(): Message 0, LIBSWO_PACKET_TYPE_DWT_PC_SAMPLE 
debg|decoder_swo.c:66->default_packet_handler(): Message 0, LIBSWO_PACKET_TYPE_OF 
debg|decoder_swo.c:66->default_packet_handler(): Message 0, LIBSWO_PACKET_TYPE_DWT_PC_SAMPLE 
debg|decoder_swo.c:66->default_packet_handler(): Message 0, LIBSWO_PACKET_TYPE_OF 
debg|decoder_swo.c:66->default_packet_handler(): Message 0, LIBSWO_PACKET_TYPE_DWT_PC_SAMPLE 
debg|decoder_swo.c:66->default_packet_handler(): Message 0, LIBSWO_PACKET_TYPE_OF 
debg|decoder_swo.c:66->default_packet_handler(): Message 0, LIBSWO_PACKET_TYPE_DWT_PC_SAMPLE 
debg|decoder_swo.c:66->default_packet_handler(): Message 0, LIBSWO_PACKET_TYPE_OF 
debg|decoder_swo.c:66->default_packet_handler(): Message 0, LIBSWO_PACKET_TYPE_DWT_PC_SAMPLE 
debg|decoder_swo.c:66->default_packet_handler(): Message 0, LIBSWO_PACKET_TYPE_OF 
debg|decoder_swo.c:66->default_packet_handler(): Message 0, LIBSWO_PACKET_TYPE_DWT_PC_SAMPLE 
warn|processing.c:49->processing_data_out_default(): No callback defined yet
debg|decoder_swo.c:66->default_packet_handler(): Message 0, LIBSWO_PACKET_TYPE_OF 
debg|decoder_swo.c:66->default_packet_handler(): Message 0, LIBSWO_PACKET_TYPE_DWT_PC_SAMPLE 
debg|decoder_swo.c:66->default_packet_handler(): Message 0, LIBSWO_PACKET_TYPE_OF 
debg|decoder_swo.c:66->default_packet_handler(): Message 0, LIBSWO_PACKET_TYPE_DWT_PC_SAMPLE 
debg|decoder_swo.c:66->default_packet_handler(): Message 0, LIBSWO_PACKET_TYPE_OF 
debg|decoder_swo.c:66->default_packet_handler(): Message 0, LIBSWO_PACKET_TYPE_DWT_PC_SAMPLE 
debg|decoder_swo.c:66->default_packet_handler(): Message 0, LIBSWO_PACKET_TYPE_OF 
debg|decoder_swo.c:66->default_packet_handler(): Message 0, LIBSWO_PACKET_TYPE_DWT_PC_SAMPLE 
debg|decoder_swo.c:66->default_packet_handler(): Message 0, LIBSWO_PACKET_TYPE_OF 
debg|decoder_swo.c:66->default_packet_handler(): Message 0, LIBSWO_PACKET_TYPE_DWT_PC_SAMPLE 
debg|decoder_swo.c:66->default_packet_handler(): Message 0, LIBSWO_PACKET_TYPE_OF 
debg|decoder_swo.c:66->default_packet_handler(): Message 0, LIBSWO_PACKET_TYPE_DWT_PC_SAMPLE 
debg|decoder_swo.c:66->default_packet_handler(): Message 0, LIBSWO_PACKET_TYPE_OF 
debg|decoder_swo.c:66->default_packet_handler(): Message 0, LIBSWO_PACKET_TYPE_DWT_PC_SAMPLE 
debg|decoder_swo.c:66->default_packet_handler(): Message 0, LIBSWO_PACKET_TYPE_OF 
debg|decoder_swo.c:66->default_packet_handler(): Message 0, LIBSWO_PACKET_TYPE_DWT_PC_SAMPLE 
debg|decoder_swo.c:66->default_packet_handler(): Message 0, LIBSWO_PACKET_TYPE_OF 
debg|decoder_swo.c:66->default_packet_handler(): Message 0, LIBSWO_PACKET_TYPE_DWT_PC_SAMPLE 
debg|decoder_swo.c:66->default_packet_handler(): Message 0, LIBSWO_PACKET_TYPE_OF 
debg|decoder_swo.c:66->default_packet_handler(): Message 0, LIBSWO_PACKET_TYPE_DWT_PC_SAMPLE 
debg|decoder_swo.c:66->default_packet_handler(): Message 0, LIBSWO_PACKET_TYPE_OF 
debg|decoder_swo.c:66->default_packet_handler(): Message 0, LIBSWO_PACKET_TYPE_DWT_PC_SAMPLE 
debg|decoder_swo.c:66->default_packet_handler(): Message 0, LIBSWO_PACKET_TYPE_OF 
debg|decoder_swo.c:66->default_packet_handler(): Message 0, LIBSWO_PACKET_TYPE_DWT_PC_SAMPLE 
debg|decoder_swo.c:66->default_packet_handler(): Message 0, LIBSWO_PACKET_TYPE_OF 
debg|decoder_swo.c:66->default_packet_handler(): Message 0, LIBSWO_PACKET_TYPE_DWT_PC_SAMPLE 
debg|decoder_swo.c:66->default_packet_handler(): Message 0, LIBSWO_PACKET_TYPE_OF 
debg|decoder_swo.c:66->default_packet_handler(): Message 0, LIBSWO_PACKET_TYPE_DWT_PC_SAMPLE 
debg|decoder_swo.c:66->default_packet_handler(): Message 0, LIBSWO_PACKET_TYPE_OF 
debg|decoder_swo.c:66->default_packet_handler(): Message 0, LIBSWO_PACKET_TYPE_DWT_PC_SAMPLE 
debg|decoder_swo.c:66->default_packet_handler(): Message 0, LIBSWO_PACKET_TYPE_OF 
debg|decoder_swo.c:214->decoder_swo_data_in(): decoded 21
debg|decoder_swo.c:216->decoder_swo_data_in(): total size decoded 840
debg|decoder_swo.c:217->decoder_swo_data_in(): Total number of decoded packet 763
debg|decoder_swo.c:239->decoder_swo_data_out(): Number of data received 840
debg|pkt_converter.c:594->pkt_convert(): Number of packet received 21
debg|decoder_swo.c:66->default_packet_handler(): Message 0, LIBSWO_PACKET_TYPE_DWT_PC_SAMPLE 
debg|decoder_swo.c:66->default_packet_handler(): Message 0, LIBSWO_PACKET_TYPE_OF 
debg|decoder_swo.c:66->default_packet_handler(): Message 0, LIBSWO_PACKET_TYPE_DWT_PC_SAMPLE 
debg|decoder_swo.c:66->default_packet_handler(): Message 0, LIBSWO_PACKET_TYPE_OF 
debg|decoder_swo.c:66->default_packet_handler(): Message 0, LIBSWO_PACKET_TYPE_DWT_PC_SAMPLE 
debg|decoder_swo.c:66->default_packet_handler(): Message 0, LIBSWO_PACKET_TYPE_OF 
debg|decoder_swo.c:66->default_packet_handler(): Message 0, LIBSWO_PACKET_TYPE_DWT_PC_SAMPLE 
debg|decoder_swo.c:66->default_packet_handler(): Message 0, LIBSWO_PACKET_TYPE_OF 
debg|decoder_swo.c:66->default_packet_handler(): Message 0, LIBSWO_PACKET_TYPE_DWT_PC_SAMPLE 
debg|decoder_swo.c:66->default_packet_handler(): Message 0, LIBSWO_PACKET_TYPE_OF 
debg|decoder_swo.c:66->default_packet_handler(): Message 0, LIBSWO_PACKET_TYPE_DWT_PC_SAMPLE 
debg|decoder_swo.c:66->warn|processing.c:49->processing_data_out_default(): No callback defined yet
default_packet_handler(): Message 0, LIBSWO_PACKET_TYPE_OF 
debg|decoder_swo.c:66->default_packet_handler(): Message 0, LIBSWO_PACKET_TYPE_DWT_PC_SAMPLE 
debg|decoder_swo.c:66->default_packet_handler(): Message 0, LIBSWO_PACKET_TYPE_OF 
debg|decoder_swo.c:66->default_packet_handler(): Message 0, LIBSWO_PACKET_TYPE_DWT_PC_SAMPLE 
debg|decoder_swo.c:66->default_packet_handler(): Message 0, LIBSWO_PACKET_TYPE_OF 
debg|decoder_swo.c:66->default_packet_handler(): Message 0, LIBSWO_PACKET_TYPE_DWT_PC_SAMPLE 
debg|decoder_swo.c:66->default_packet_handler(): Message 0, LIBSWO_PACKET_TYPE_OF 
debg|decoder_swo.c:66->default_packet_handler(): Message 0, LIBSWO_PACKET_TYPE_DWT_PC_SAMPLE 
debg|decoder_swo.c:66->default_packet_handler(): Message 0, LIBSWO_PACKET_TYPE_OF 
debg|decoder_swo.c:66->default_packet_handler(): Message 0, LIBSWO_PACKET_TYPE_DWT_PC_SAMPLE 
debg|decoder_swo.c:66->default_packet_handler(): Message 0, LIBSWO_PACKET_TYPE_OF 
debg|decoder_swo.c:66->default_packet_handler(): Message 0, LIBSWO_PACKET_TYPE_DWT_PC_SAMPLE 
debg|decoder_swo.c:66->default_packet_handler(): Message 0, LIBSWO_PACKET_TYPE_OF 
debg|decoder_swo.c:66->default_packet_handler(): Message 0, LIBSWO_PACKET_TYPE_DWT_PC_SAMPLE 
debg|decoder_swo.c:66->default_packet_handler(): Message 0, LIBSWO_PACKET_TYPE_OF 
debg|decoder_swo.c:66->default_packet_handler(): Message 0, LIBSWO_PACKET_TYPE_DWT_PC_SAMPLE 
debg|decoder_swo.c:66->default_packet_handler(): Message 0, LIBSWO_PACKET_TYPE_OF 
debg|decoder_swo.c:66->default_packet_handler(): Message 0, LIBSWO_PACKET_TYPE_DWT_PC_SAMPLE 
debg|decoder_swo.c:66->default_packet_handler(): Message 0, LIBSWO_PACKET_TYPE_OF 
debg|decoder_swo.c:66->default_packet_handler(): Message 0, LIBSWO_PACKET_TYPE_DWT_PC_SAMPLE 
debg|decoder_swo.c:66->default_packet_handler(): Message 0, LIBSWO_PACKET_TYPE_OF 
debg|decoder_swo.c:66->default_packet_handler(): Message 0, LIBSWO_PACKET_TYPE_DWT_PC_SAMPLE 
debg|decoder_swo.c:66->default_packet_handler(): Message 0, LIBSWO_PACKET_TYPE_OF 
debg|decoder_swo.c:66->default_packet_handler(): Message 0, LIBSWO_PACKET_TYPE_DWT_PC_SAMPLE 
debg|decoder_swo.c:66->default_packet_handler(): Message 0, LIBSWO_PACKET_TYPE_OF 
debg|decoder_swo.c:66->default_packet_handler(): Message 0, LIBSWO_PACKET_TYPE_DWT_PC_SAMPLE 
debg|decoder_swo.c:66->default_packet_handler(): Message 0, LIBSWO_PACKET_TYPE_OF 
debg|decoder_swo.c:66->default_packet_handler(): Message 0, LIBSWO_PACKET_TYPE_DWT_PC_SAMPLE 
debg|decoder_swo.c:66->default_packet_handler(): Message 0, LIBSWO_PACKET_TYPE_OF 
debg|decoder_swo.c:66->default_packet_handler(): Message 0, LIBSWO_PACKET_TYPE_DWT_PC_SAMPLE 
debg|decoder_swo.c:66->default_packet_handler(): Message 0, LIBSWO_PACKET_TYPE_OF 
debg|decoder_swo.c:214->decoder_swo_data_in(): decoded 21
debg|decoder_swo.c:216->decoder_swo_data_in(): total size decoded 840
debg|decoder_swo.c:217->decoder_swo_data_in(): Total number of decoded packet 784
debg|decoder_swo.c:239->decoder_swo_data_out(): Number of data received 840
debg|pkt_converter.c:594->pkt_convert(): Number of packet received 21
debg|decoder_swo.c:66->default_packet_handler(): Message 0, LIBSWO_PACKET_TYPE_DWT_PC_SAMPLE 
debg|decoder_swo.c:66->default_packet_handler(): Message 0, LIBSWO_PACKET_TYPE_OF 
debg|decoder_swo.c:66->default_packet_handler(): Message 0, LIBSWO_PACKET_TYPE_DWT_PC_SAMPLE 
debg|decoder_swo.c:66->default_packet_handler(): Message 0, LIBSWO_PACKET_TYPE_OF 
debg|decoder_swo.c:66->default_packet_handler(): Message 0, LIBSWO_PACKET_TYPE_DWT_PC_SAMPLE 
debg|decoder_swo.c:66->default_packet_handler(): Message 0, LIBSWO_PACKET_TYPE_OF 
debg|decoder_swo.c:66->default_packet_handler(): Message 0, LIBSWO_PACKET_TYPE_DWT_PC_SAMPLE 
debg|decoder_swo.c:66->default_packet_handler(): Message 0, LIBSWO_PACKET_TYPE_OF 
debg|decoder_swo.c:66->default_packet_handler(): Message 0, LIBSWO_PACKET_TYPE_DWT_PC_SAMPLE 
debg|decoder_swo.c:66->default_packet_handler(): Message 0, LIBSWO_PACKET_TYPE_OF 
debg|decoder_swo.c:66->default_packet_handler(): Message 0, LIBSWO_PACKET_TYPE_DWT_PC_SAMPLE 
debg|decoder_swo.c:66->default_packet_handler(warn|processing.c:49->processing_data_out_default(): No callback defined yet
): Message 0, LIBSWO_PACKET_TYPE_OF 
debg|decoder_swo.c:66->default_packet_handler(): Message 0, LIBSWO_PACKET_TYPE_DWT_PC_SAMPLE 
debg|decoder_swo.c:66->default_packet_handler(): Message 0, LIBSWO_PACKET_TYPE_OF 
debg|decoder_swo.c:66->default_packet_handler(): Message 0, LIBSWO_PACKET_TYPE_DWT_PC_SAMPLE 
debg|decoder_swo.c:66->default_packet_handler(): Message 0, LIBSWO_PACKET_TYPE_OF 
debg|decoder_swo.c:66->default_packet_handler(): Message 0, LIBSWO_PACKET_TYPE_DWT_PC_SAMPLE 
debg|decoder_swo.c:66->default_packet_handler(): Message 0, LIBSWO_PACKET_TYPE_OF 
debg|decoder_swo.c:66->default_packet_handler(): Message 0, LIBSWO_PACKET_TYPE_DWT_PC_SAMPLE 
debg|decoder_swo.c:66->default_packet_handler(): Message 0, LIBSWO_PACKET_TYPE_OF 
debg|decoder_swo.c:66->default_packet_handler(): Message 0, LIBSWO_PACKET_TYPE_DWT_PC_SAMPLE 
debg|decoder_swo.c:66->default_packet_handler(): Message 0, LIBSWO_PACKET_TYPE_OF 
debg|decoder_swo.c:66->default_packet_handler(): Message 0, LIBSWO_PACKET_TYPE_DWT_PC_SAMPLE 
debg|decoder_swo.c:66->default_packet_handler(): Message 0, LIBSWO_PACKET_TYPE_OF 
debg|decoder_swo.c:66->default_packet_handler(): Message 0, LIBSWO_PACKET_TYPE_DWT_PC_SAMPLE 
debg|decoder_swo.c:66->default_packet_handler(): Message 0, LIBSWO_PACKET_TYPE_OF 
debg|decoder_swo.c:66->default_packet_handler(): Message 0, LIBSWO_PACKET_TYPE_DWT_PC_SAMPLE 
debg|decoder_swo.c:66->default_packet_handler(): Message 0, LIBSWO_PACKET_TYPE_OF 
debg|decoder_swo.c:66->default_packet_handler(): Message 0, LIBSWO_PACKET_TYPE_DWT_PC_SAMPLE 
debg|decoder_swo.c:66->default_packet_handler(): Message 0, LIBSWO_PACKET_TYPE_OF 
debg|decoder_swo.c:66->default_packet_handler(): Message 0, LIBSWO_PACKET_TYPE_DWT_PC_SAMPLE 
debg|decoder_swo.c:66->default_packet_handler(): Message 0, LIBSWO_PACKET_TYPE_OF 
debg|decoder_swo.c:66->default_packet_handler(): Message 0, LIBSWO_PACKET_TYPE_DWT_PC_SAMPLE 
debg|decoder_swo.c:66->default_packet_handler(): Message 0, LIBSWO_PACKET_TYPE_OF 
debg|decoder_swo.c:66->default_packet_handler(): Message 0, LIBSWO_PACKET_TYPE_DWT_PC_SAMPLE 
debg|decoder_swo.c:66->default_packet_handler(): Message 0, LIBSWO_PACKET_TYPE_OF 
debg|decoder_swo.c:66->default_packet_handler(): Message 0, LIBSWO_PACKET_TYPE_DWT_PC_SAMPLE 
debg|decoder_swo.c:66->default_packet_handler(): Message 0, LIBSWO_PACKET_TYPE_OF 
debg|decoder_swo.c:66->default_packet_handler(): Message 0, LIBSWO_PACKET_TYPE_DWT_PC_SAMPLE 
debg|decoder_swo.c:66->default_packet_handler(): Message 0, LIBSWO_PACKET_TYPE_OF 
debg|decoder_swo.c:66->default_packet_handler(): Message 0, LIBSWO_PACKET_TYPE_DWT_PC_SAMPLE 
debg|decoder_swo.c:66->default_packet_handler(): Message 0, LIBSWO_PACKET_TYPE_OF 
debg|decoder_swo.c:66->default_packet_handler(): Message 0, LIBSWO_PACKET_TYPE_DWT_PC_SAMPLE 
debg|decoder_swo.c:214->decoder_swo_data_in(): decoded 22
debg|decoder_swo.c:216->decoder_swo_data_in(): total size decoded 880
debg|decoder_swo.c:217->decoder_swo_data_in(): Total number of decoded packet 806
debg|decoder_swo.c:239->decoder_swo_data_out(): Number of data received 880
debg|pkt_converter.c:594->pkt_convert(): Number of packet received 22
debg|decoder_swo.c:66->default_packet_handler(): Message 0, LIBSWO_PACKET_TYPE_OF 
debg|decoder_swo.c:66->default_packet_handler(): Message 0, LIBSWO_PACKET_TYPE_DWT_PC_SAMPLE 
debg|decoder_swo.c:66->default_packet_handler(): Message 0, LIBSWO_PACKET_TYPE_OF 
debg|decoder_swo.c:66->default_packet_handler(): Message 0, LIBSWO_PACKET_TYPE_DWT_PC_SAMPLE 
debg|decoder_swo.c:66->default_packet_handler(): Message 0, LIBSWO_PACKET_TYPE_OF 
debg|decoder_swo.c:66->default_packet_handler(): Message 0, LIBSWO_PACKET_TYPE_DWT_PC_SAMPLE 
debg|decoder_swo.c:66->default_packet_handler(): Message 0, LIBSWO_PACKET_TYPE_OF 
debg|decoder_swo.c:66->default_packet_handler(): Message 0, LIBSWO_PACKET_TYPE_DWT_PC_SAMPLE 
debg|decoder_swo.c:66->default_packet_handler(): Message 0, LIBSWO_PACKET_TYPE_OF 
debg|decoder_swo.c:66->default_packet_handler(): Message 0, LIBSWO_PACKET_TYPE_DWT_PC_SAMPLE 
debg|decoder_swo.c:66->default_packet_handler(): Message 0, LIBSWO_PAwarn|processing.c:49->processing_data_out_default(): No callback defined yet
CKET_TYPE_OF 
debg|decoder_swo.c:66->default_packet_handler(): Message 0, LIBSWO_PACKET_TYPE_DWT_PC_SAMPLE 
debg|decoder_swo.c:66->default_packet_handler(): Message 0, LIBSWO_PACKET_TYPE_OF 
debg|decoder_swo.c:66->default_packet_handler(): Message 0, LIBSWO_PACKET_TYPE_DWT_PC_SAMPLE 
debg|decoder_swo.c:66->default_packet_handler(): Message 0, LIBSWO_PACKET_TYPE_OF 
debg|decoder_swo.c:66->default_packet_handler(): Message 0, LIBSWO_PACKET_TYPE_DWT_PC_SAMPLE 
debg|decoder_swo.c:66->default_packet_handler(): Message 0, LIBSWO_PACKET_TYPE_OF 
debg|decoder_swo.c:66->default_packet_handler(): Message 0, LIBSWO_PACKET_TYPE_DWT_PC_SAMPLE 
debg|decoder_swo.c:66->default_packet_handler(): Message 0, LIBSWO_PACKET_TYPE_OF 
debg|decoder_swo.c:66->default_packet_handler(): Message 0, LIBSWO_PACKET_TYPE_DWT_PC_SAMPLE 
debg|decoder_swo.c:66->default_packet_handler(): Message 0, LIBSWO_PACKET_TYPE_OF 
debg|decoder_swo.c:66->default_packet_handler(): Message 0, LIBSWO_PACKET_TYPE_DWT_PC_SAMPLE 
debg|decoder_swo.c:66->default_packet_handler(): Message 0, LIBSWO_PACKET_TYPE_OF 
debg|decoder_swo.c:66->default_packet_handler(): Message 0, LIBSWO_PACKET_TYPE_DWT_PC_SAMPLE 
debg|decoder_swo.c:66->default_packet_handler(): Message 0, LIBSWO_PACKET_TYPE_OF 
debg|decoder_swo.c:66->default_packet_handler(): Message 0, LIBSWO_PACKET_TYPE_DWT_PC_SAMPLE 
debg|decoder_swo.c:66->default_packet_handler(): Message 0, LIBSWO_PACKET_TYPE_OF 
debg|decoder_swo.c:66->default_packet_handler(): Message 0, LIBSWO_PACKET_TYPE_DWT_PC_SAMPLE 
debg|decoder_swo.c:66->default_packet_handler(): Message 0, LIBSWO_PACKET_TYPE_OF 
debg|decoder_swo.c:66->default_packet_handler(): Message 0, LIBSWO_PACKET_TYPE_DWT_PC_SAMPLE 
debg|decoder_swo.c:66->default_packet_handler(): Message 0, LIBSWO_PACKET_TYPE_OF 
debg|decoder_swo.c:66->default_packet_handler(): Message 0, LIBSWO_PACKET_TYPE_DWT_PC_SAMPLE 
debg|decoder_swo.c:66->default_packet_handler(): Message 0, LIBSWO_PACKET_TYPE_OF 
debg|decoder_swo.c:66->default_packet_handler(): Message 0, LIBSWO_PACKET_TYPE_DWT_PC_SAMPLE 
debg|decoder_swo.c:66->default_packet_handler(): Message 0, LIBSWO_PACKET_TYPE_OF 
debg|decoder_swo.c:66->default_packet_handler(): Message 0, LIBSWO_PACKET_TYPE_DWT_PC_SAMPLE 
debg|decoder_swo.c:66->default_packet_handler(): Message 0, LIBSWO_PACKET_TYPE_OF 
debg|decoder_swo.c:66->default_packet_handler(): Message 0, LIBSWO_PACKET_TYPE_DWT_PC_SAMPLE 
debg|decoder_swo.c:66->default_packet_handler(): Message 0, LIBSWO_PACKET_TYPE_OF 
debg|decoder_swo.c:66->default_packet_handler(): Message 0, LIBSWO_PACKET_TYPE_DWT_PC_SAMPLE 
debg|decoder_swo.c:66->default_packet_handler(): Message 0, LIBSWO_PACKET_TYPE_OF 
debg|decoder_swo.c:66->default_packet_handler(): Message 0, LIBSWO_PACKET_TYPE_DWT_PC_SAMPLE 
debg|decoder_swo.c:66->default_packet_handler(): Message 0, LIBSWO_PACKET_TYPE_OF 
debg|decoder_swo.c:214->decoder_swo_data_in(): decoded 21
debg|decoder_swo.c:216->decoder_swo_data_in(): total size decoded 840
debg|decoder_swo.c:217->decoder_swo_data_in(): Total number of decoded packet 827
debg|decoder_swo.c:239->decoder_swo_data_out(): Number of data received 840
debg|pkt_converter.c:594->pkt_convert(): Number of packet received 21
debg|decoder_swo.c:66->default_packet_handler(): Message 0, LIBSWO_PACKET_TYPE_DWT_PC_SAMPLE 
debg|decoder_swo.c:66->default_packet_handler(): Message 0, LIBSWO_PACKET_TYPE_OF 
debg|decoder_swo.c:66->default_packet_handler(): Message 0, LIBSWO_PACKET_TYPE_DWT_PC_SAMPLE 
debg|decoder_swo.c:66->default_packet_handler(): Message 0, LIBSWO_PACKET_TYPE_OF 
debg|decoder_swo.c:66->default_packet_handler(): Message 0, LIBSWO_PACKET_TYPE_DWT_PC_SAMPLE 
debg|decoder_swo.c:66->default_packet_handler(): Message 0, LIBSWO_PACKET_TYPE_OF 
debg|decoder_swo.c:66->default_packet_handler(): Message 0, LIBSWO_PACKET_TYPE_DWT_PC_SAMPLE 
debg|decoder_swo.c:66->default_packet_handler(): Message 0, LIBSWO_PACKET_TYPE_OF 
debg|decoder_swo.c:66->default_packet_handler(): Message 0, LIBSWO_PACKET_TYPE_DWT_PC_SAMPLE 
debg|decoder_swo.c:66->default_packet_handler(): Message 0, LIBSWO_PACKET_TYPE_OF 
debg|decowarn|processing.c:49->processing_data_out_default(): No callback defined yet
der_swo.c:66->default_packet_handler(): Message 0, LIBSWO_PACKET_TYPE_DWT_PC_SAMPLE 
debg|decoder_swo.c:66->default_packet_handler(): Message 0, LIBSWO_PACKET_TYPE_OF 
debg|decoder_swo.c:66->default_packet_handler(): Message 0, LIBSWO_PACKET_TYPE_DWT_PC_SAMPLE 
debg|decoder_swo.c:66->default_packet_handler(): Message 0, LIBSWO_PACKET_TYPE_OF 
debg|decoder_swo.c:66->default_packet_handler(): Message 0, LIBSWO_PACKET_TYPE_DWT_PC_SAMPLE 
debg|decoder_swo.c:66->default_packet_handler(): Message 0, LIBSWO_PACKET_TYPE_OF 
debg|decoder_swo.c:66->default_packet_handler(): Message 0, LIBSWO_PACKET_TYPE_DWT_PC_SAMPLE 
debg|decoder_swo.c:66->default_packet_handler(): Message 0, LIBSWO_PACKET_TYPE_OF 
debg|decoder_swo.c:66->default_packet_handler(): Message 0, LIBSWO_PACKET_TYPE_DWT_PC_SAMPLE 
debg|decoder_swo.c:66->default_packet_handler(): Message 0, LIBSWO_PACKET_TYPE_OF 
debg|decoder_swo.c:66->default_packet_handler(): Message 0, LIBSWO_PACKET_TYPE_DWT_PC_SAMPLE 
debg|decoder_swo.c:66->default_packet_handler(): Message 0, LIBSWO_PACKET_TYPE_OF 
debg|decoder_swo.c:66->default_packet_handler(): Message 0, LIBSWO_PACKET_TYPE_DWT_PC_SAMPLE 
debg|decoder_swo.c:66->default_packet_handler(): Message 0, LIBSWO_PACKET_TYPE_OF 
debg|decoder_swo.c:66->default_packet_handler(): Message 0, LIBSWO_PACKET_TYPE_DWT_PC_SAMPLE 
debg|decoder_swo.c:66->default_packet_handler(): Message 0, LIBSWO_PACKET_TYPE_OF 
debg|decoder_swo.c:66->default_packet_handler(): Message 0, LIBSWO_PACKET_TYPE_DWT_PC_SAMPLE 
debg|decoder_swo.c:66->default_packet_handler(): Message 0, LIBSWO_PACKET_TYPE_OF 
debg|decoder_swo.c:66->default_packet_handler(): Message 0, LIBSWO_PACKET_TYPE_DWT_PC_SAMPLE 
debg|decoder_swo.c:66->default_packet_handler(): Message 0, LIBSWO_PACKET_TYPE_OF 
debg|decoder_swo.c:66->default_packet_handler(): Message 0, LIBSWO_PACKET_TYPE_DWT_PC_SAMPLE 
debg|decoder_swo.c:66->default_packet_handler(): Message 0, LIBSWO_PACKET_TYPE_OF 
debg|decoder_swo.c:66->default_packet_handler(): Message 0, LIBSWO_PACKET_TYPE_DWT_PC_SAMPLE 
debg|decoder_swo.c:66->default_packet_handler(): Message 0, LIBSWO_PACKET_TYPE_OF 
debg|decoder_swo.c:66->default_packet_handler(): Message 0, LIBSWO_PACKET_TYPE_DWT_PC_SAMPLE 
debg|decoder_swo.c:66->default_packet_handler(): Message 0, LIBSWO_PACKET_TYPE_OF 
debg|decoder_swo.c:66->default_packet_handler(): Message 0, LIBSWO_PACKET_TYPE_DWT_PC_SAMPLE 
debg|decoder_swo.c:66->default_packet_handler(): Message 0, LIBSWO_PACKET_TYPE_OF 
debg|decoder_swo.c:66->default_packet_handler(): Message 0, LIBSWO_PACKET_TYPE_DWT_PC_SAMPLE 
debg|decoder_swo.c:66->default_packet_handler(): Message 0, LIBSWO_PACKET_TYPE_OF 
debg|decoder_swo.c:66->default_packet_handler(): Message 0, LIBSWO_PACKET_TYPE_DWT_PC_SAMPLE 
debg|decoder_swo.c:66->default_packet_handler(): Message 0, LIBSWO_PACKET_TYPE_OF 
debg|decoder_swo.c:214->decoder_swo_data_in(): decoded 21
debg|decoder_swo.c:216->decoder_swo_data_in(): total size decoded 840
debg|decoder_swo.c:217->decoder_swo_data_in(): Total number of decoded packet 848
debg|decoder_swo.c:239->decoder_swo_data_out(): Number of data received 840
debg|pkt_converter.c:594->pkt_convert(): Number of packet received 21
debg|decoder_swo.c:66->default_packet_handler(): Message 0, LIBSWO_PACKET_TYPE_DWT_PC_SAMPLE 
debg|decoder_swo.c:66->default_packet_handler(): Message 0, LIBSWO_PACKET_TYPE_OF 
debg|decoder_swo.c:66->default_packet_handler(): Message 0, LIBSWO_PACKET_TYPE_DWT_PC_SAMPLE 
debg|decoder_swo.c:66->default_packet_handler(): Message 0, LIBSWO_PACKET_TYPE_OF 
debg|decoder_swo.c:66->default_packet_handler(): Message 0, LIBSWO_PACKET_TYPE_DWT_PC_SAMPLE 
debg|decoder_swo.c:66->default_packet_handler(): Message 0, LIBSWO_PACKET_TYPE_OF 
debg|decoder_swo.c:66->default_packet_handler(): Message 0, LIBSWO_PACKET_TYPE_DWT_PC_SAMPLE 
debg|decoder_swo.c:66->default_packet_handler(): Message 0, LIBSWO_PACKET_TYPE_OF 
debg|decoder_swo.c:66->default_packet_handler(): Message 0, LIBSWO_PACKET_TYPE_DWT_PC_SAMPLE 
debg|decoder_swo.c:66->default_packet_handler(): Message 0, LIBSWO_PACKET_TYPE_OF 
debg|decoder_swo.c:66->default_pwarn|processing.c:49->processing_data_out_default(): No callback defined yet
acket_handler(): Message 0, LIBSWO_PACKET_TYPE_DWT_PC_SAMPLE 
debg|decoder_swo.c:66->default_packet_handler(): Message 0, LIBSWO_PACKET_TYPE_OF 
debg|decoder_swo.c:66->default_packet_handler(): Message 0, LIBSWO_PACKET_TYPE_DWT_PC_SAMPLE 
debg|decoder_swo.c:66->default_packet_handler(): Message 0, LIBSWO_PACKET_TYPE_OF 
debg|decoder_swo.c:66->default_packet_handler(): Message 0, LIBSWO_PACKET_TYPE_DWT_PC_SAMPLE 
debg|decoder_swo.c:66->default_packet_handler(): Message 0, LIBSWO_PACKET_TYPE_OF 
debg|decoder_swo.c:66->default_packet_handler(): Message 0, LIBSWO_PACKET_TYPE_DWT_PC_SAMPLE 
debg|decoder_swo.c:66->default_packet_handler(): Message 0, LIBSWO_PACKET_TYPE_OF 
debg|decoder_swo.c:66->default_packet_handler(): Message 0, LIBSWO_PACKET_TYPE_DWT_PC_SAMPLE 
debg|decoder_swo.c:66->default_packet_handler(): Message 0, LIBSWO_PACKET_TYPE_OF 
debg|decoder_swo.c:66->default_packet_handler(): Message 0, LIBSWO_PACKET_TYPE_DWT_PC_SAMPLE 
debg|decoder_swo.c:66->default_packet_handler(): Message 0, LIBSWO_PACKET_TYPE_OF 
debg|decoder_swo.c:66->default_packet_handler(): Message 0, LIBSWO_PACKET_TYPE_DWT_PC_SAMPLE 
debg|decoder_swo.c:66->default_packet_handler(): Message 0, LIBSWO_PACKET_TYPE_OF 
debg|decoder_swo.c:66->default_packet_handler(): Message 0, LIBSWO_PACKET_TYPE_DWT_PC_SAMPLE 
debg|decoder_swo.c:66->default_packet_handler(): Message 0, LIBSWO_PACKET_TYPE_OF 
debg|decoder_swo.c:66->default_packet_handler(): Message 0, LIBSWO_PACKET_TYPE_DWT_PC_SAMPLE 
debg|decoder_swo.c:66->default_packet_handler(): Message 0, LIBSWO_PACKET_TYPE_OF 
debg|decoder_swo.c:66->default_packet_handler(): Message 0, LIBSWO_PACKET_TYPE_DWT_PC_SAMPLE 
debg|decoder_swo.c:66->default_packet_handler(): Message 0, LIBSWO_PACKET_TYPE_OF 
debg|decoder_swo.c:66->default_packet_handler(): Message 0, LIBSWO_PACKET_TYPE_DWT_PC_SAMPLE 
debg|decoder_swo.c:66->default_packet_handler(): Message 0, LIBSWO_PACKET_TYPE_OF 
debg|decoder_swo.c:66->default_packet_handler(): Message 0, LIBSWO_PACKET_TYPE_DWT_PC_SAMPLE 
debg|decoder_swo.c:66->default_packet_handler(): Message 0, LIBSWO_PACKET_TYPE_OF 
debg|decoder_swo.c:66->default_packet_handler(): Message 0, LIBSWO_PACKET_TYPE_DWT_PC_SAMPLE 
debg|decoder_swo.c:66->default_packet_handler(): Message 0, LIBSWO_PACKET_TYPE_OF 
debg|decoder_swo.c:66->default_packet_handler(): Message 0, LIBSWO_PACKET_TYPE_DWT_PC_SAMPLE 
debg|decoder_swo.c:66->default_packet_handler(): Message 0, LIBSWO_PACKET_TYPE_OF 
debg|decoder_swo.c:66->default_packet_handler(): Message 0, LIBSWO_PACKET_TYPE_DWT_PC_SAMPLE 
debg|decoder_swo.c:66->default_packet_handler(): Message 0, LIBSWO_PACKET_TYPE_OF 
debg|decoder_swo.c:66->default_packet_handler(): Message 0, LIBSWO_PACKET_TYPE_DWT_PC_SAMPLE 
debg|decoder_swo.c:66->default_packet_handler(): Message 0, LIBSWO_PACKET_TYPE_OF 
debg|decoder_swo.c:66->default_packet_handler(): Message 0, LIBSWO_PACKET_TYPE_DWT_PC_SAMPLE 
debg|decoder_swo.c:214->decoder_swo_data_in(): decoded 22
debg|decoder_swo.c:216->decoder_swo_data_in(): total size decoded 880
debg|decoder_swo.c:217->decoder_swo_data_in(): Total number of decoded packet 870
debg|decoder_swo.c:239->decoder_swo_data_out(): Number of data received 880
debg|pkt_converter.c:594->pkt_convert(): Number of packet received 22
debg|decoder_swo.c:66->default_packet_handler(): Message 0, LIBSWO_PACKET_TYPE_OF 
debg|decoder_swo.c:66->default_packet_handler(): Message 0, LIBSWO_PACKET_TYPE_DWT_PC_SAMPLE 
debg|decoder_swo.c:66->default_packet_handler(): Message 0, LIBSWO_PACKET_TYPE_OF 
debg|decoder_swo.c:66->default_packet_handler(): Message 0, LIBSWO_PACKET_TYPE_DWT_PC_SAMPLE 
debg|decoder_swo.c:66->default_packet_handler(): Message 0, LIBSWO_PACKET_TYPE_OF 
debg|decoder_swo.c:66->default_packet_handler(): Message 0, LIBSWO_PACKET_TYPE_DWT_PC_SAMPLE 
debg|decoder_swo.c:66->default_packet_handler(): Message 0, LIBSWO_PACKET_TYPE_OF 
debg|decoder_swo.c:66->default_packet_handler(): Message 0, LIBSWO_PACKET_TYPE_DWT_PC_SAMPLE 
debg|decoder_swo.c:66->default_packet_handler(): Message 0, LIBSWO_PACKET_TYPE_OF 
debg|decoder_swo.c:66->default_packet_handler(): Messagwarn|processing.c:49->processing_data_out_default(): No callback defined yet
e 0, LIBSWO_PACKET_TYPE_DWT_PC_SAMPLE 
debg|decoder_swo.c:66->default_packet_handler(): Message 0, LIBSWO_PACKET_TYPE_OF 
debg|decoder_swo.c:66->default_packet_handler(): Message 0, LIBSWO_PACKET_TYPE_DWT_PC_SAMPLE 
debg|decoder_swo.c:66->default_packet_handler(): Message 0, LIBSWO_PACKET_TYPE_OF 
debg|decoder_swo.c:66->default_packet_handler(): Message 0, LIBSWO_PACKET_TYPE_DWT_PC_SAMPLE 
debg|decoder_swo.c:66->default_packet_handler(): Message 0, LIBSWO_PACKET_TYPE_OF 
debg|decoder_swo.c:66->default_packet_handler(): Message 0, LIBSWO_PACKET_TYPE_DWT_PC_SAMPLE 
debg|decoder_swo.c:66->default_packet_handler(): Message 0, LIBSWO_PACKET_TYPE_OF 
debg|decoder_swo.c:66->default_packet_handler(): Message 0, LIBSWO_PACKET_TYPE_DWT_PC_SAMPLE 
debg|decoder_swo.c:66->default_packet_handler(): Message 0, LIBSWO_PACKET_TYPE_OF 
debg|decoder_swo.c:66->default_packet_handler(): Message 0, LIBSWO_PACKET_TYPE_DWT_PC_SAMPLE 
debg|decoder_swo.c:66->default_packet_handler(): Message 0, LIBSWO_PACKET_TYPE_OF 
debg|decoder_swo.c:66->default_packet_handler(): Message 0, LIBSWO_PACKET_TYPE_DWT_PC_SAMPLE 
debg|decoder_swo.c:66->default_packet_handler(): Message 0, LIBSWO_PACKET_TYPE_OF 
debg|decoder_swo.c:66->default_packet_handler(): Message 0, LIBSWO_PACKET_TYPE_DWT_PC_SAMPLE 
debg|decoder_swo.c:66->default_packet_handler(): Message 0, LIBSWO_PACKET_TYPE_OF 
debg|decoder_swo.c:66->default_packet_handler(): Message 0, LIBSWO_PACKET_TYPE_DWT_PC_SAMPLE 
debg|decoder_swo.c:66->default_packet_handler(): Message 0, LIBSWO_PACKET_TYPE_OF 
debg|decoder_swo.c:66->default_packet_handler(): Message 0, LIBSWO_PACKET_TYPE_DWT_PC_SAMPLE 
debg|decoder_swo.c:66->default_packet_handler(): Message 0, LIBSWO_PACKET_TYPE_OF 
debg|decoder_swo.c:66->default_packet_handler(): Message 0, LIBSWO_PACKET_TYPE_DWT_PC_SAMPLE 
debg|decoder_swo.c:66->default_packet_handler(): Message 0, LIBSWO_PACKET_TYPE_OF 
debg|decoder_swo.c:66->default_packet_handler(): Message 0, LIBSWO_PACKET_TYPE_DWT_PC_SAMPLE 
debg|decoder_swo.c:66->default_packet_handler(): Message 0, LIBSWO_PACKET_TYPE_OF 
debg|decoder_swo.c:66->default_packet_handler(): Message 0, LIBSWO_PACKET_TYPE_DWT_PC_SAMPLE 
debg|decoder_swo.c:66->default_packet_handler(): Message 0, LIBSWO_PACKET_TYPE_OF 
debg|decoder_swo.c:66->default_packet_handler(): Message 0, LIBSWO_PACKET_TYPE_DWT_PC_SAMPLE 
debg|decoder_swo.c:66->default_packet_handler(): Message 0, LIBSWO_PACKET_TYPE_OF 
debg|decoder_swo.c:66->default_packet_handler(): Message 0, LIBSWO_PACKET_TYPE_DWT_PC_SAMPLE 
debg|decoder_swo.c:66->default_packet_handler(): Message 0, LIBSWO_PACKET_TYPE_OF 
debg|decoder_swo.c:66->default_packet_handler(): Message 0, LIBSWO_PACKET_TYPE_DWT_PC_SAMPLE 
debg|decoder_swo.c:66->default_packet_handler(): Message 0, LIBSWO_PACKET_TYPE_OF 
debg|decoder_swo.c:66->default_packet_handler(): Message 0, LIBSWO_PACKET_TYPE_DWT_PC_SAMPLE 
debg|decoder_swo.c:66->default_packet_handler(): Message 0, LIBSWO_PACKET_TYPE_OF 
debg|decoder_swo.c:214->decoder_swo_data_in(): decoded 21
debg|decoder_swo.c:216->decoder_swo_data_in(): total size decoded 840
debg|decoder_swo.c:217->decoder_swo_data_in(): Total number of decoded packet 891
debg|decoder_swo.c:239->decoder_swo_data_out(): Number of data received 840
debg|pkt_converter.c:594->pkt_convert(): Number of packet received 21
debg|decoder_swo.c:66->default_packet_handler(): Message 0, LIBSWO_PACKET_TYPE_DWT_PC_SAMPLE 
debg|decoder_swo.c:66->default_packet_handler(): Message 0, LIBSWO_PACKET_TYPE_OF 
debg|decoder_swo.c:66->default_packet_handler(): Message 0, LIBSWO_PACKET_TYPE_DWT_PC_SAMPLE 
debg|decoder_swo.c:66->default_packet_handler(): Message 0, LIBSWO_PACKET_TYPE_OF 
debg|decoder_swo.c:66->default_packet_handler(): Message 0, LIBSWO_PACKET_TYPE_DWT_PC_SAMPLE 
debg|decoder_swo.c:66->default_packet_handler(): Message 0, LIBSWO_PACKET_TYPE_OF 
debg|decoder_swo.c:66->default_packet_handler(): Message 0, LIBSWO_PACKET_TYPE_DWT_PC_SAMPLE 
debg|decoder_swo.c:66->default_packet_handler(): Message 0, LIBSWO_PACKET_TYPE_OF 
debg|decoder_swo.c:66->default_packet_handler(): Message 0, LIBSWO_PACKET_TYPEwarn|processing.c:49->processing_data_out_default(): No callback defined yet
_DWT_PC_SAMPLE 
debg|decoder_swo.c:66->default_packet_handler(): Message 0, LIBSWO_PACKET_TYPE_OF 
debg|decoder_swo.c:66->default_packet_handler(): Message 0, LIBSWO_PACKET_TYPE_DWT_PC_SAMPLE 
debg|decoder_swo.c:66->default_packet_handler(): Message 0, LIBSWO_PACKET_TYPE_OF 
debg|decoder_swo.c:66->default_packet_handler(): Message 0, LIBSWO_PACKET_TYPE_DWT_PC_SAMPLE 
debg|decoder_swo.c:66->default_packet_handler(): Message 0, LIBSWO_PACKET_TYPE_OF 
debg|decoder_swo.c:66->default_packet_handler(): Message 0, LIBSWO_PACKET_TYPE_DWT_PC_SAMPLE 
debg|decoder_swo.c:66->default_packet_handler(): Message 0, LIBSWO_PACKET_TYPE_OF 
debg|decoder_swo.c:66->default_packet_handler(): Message 0, LIBSWO_PACKET_TYPE_DWT_PC_SAMPLE 
debg|decoder_swo.c:66->default_packet_handler(): Message 0, LIBSWO_PACKET_TYPE_OF 
debg|decoder_swo.c:66->default_packet_handler(): Message 0, LIBSWO_PACKET_TYPE_DWT_PC_SAMPLE 
debg|decoder_swo.c:66->default_packet_handler(): Message 0, LIBSWO_PACKET_TYPE_OF 
debg|decoder_swo.c:66->default_packet_handler(): Message 0, LIBSWO_PACKET_TYPE_DWT_PC_SAMPLE 
debg|decoder_swo.c:66->default_packet_handler(): Message 0, LIBSWO_PACKET_TYPE_OF 
debg|decoder_swo.c:66->default_packet_handler(): Message 0, LIBSWO_PACKET_TYPE_DWT_PC_SAMPLE 
debg|decoder_swo.c:66->default_packet_handler(): Message 0, LIBSWO_PACKET_TYPE_OF 
debg|decoder_swo.c:66->default_packet_handler(): Message 0, LIBSWO_PACKET_TYPE_DWT_PC_SAMPLE 
debg|decoder_swo.c:66->default_packet_handler(): Message 0, LIBSWO_PACKET_TYPE_OF 
debg|decoder_swo.c:66->default_packet_handler(): Message 0, LIBSWO_PACKET_TYPE_DWT_PC_SAMPLE 
debg|decoder_swo.c:66->default_packet_handler(): Message 0, LIBSWO_PACKET_TYPE_OF 
debg|decoder_swo.c:66->default_packet_handler(): Message 0, LIBSWO_PACKET_TYPE_DWT_PC_SAMPLE 
debg|decoder_swo.c:66->default_packet_handler(): Message 0, LIBSWO_PACKET_TYPE_OF 
debg|decoder_swo.c:66->default_packet_handler(): Message 0, LIBSWO_PACKET_TYPE_DWT_PC_SAMPLE 
debg|decoder_swo.c:66->default_packet_handler(): Message 0, LIBSWO_PACKET_TYPE_OF 
debg|decoder_swo.c:66->default_packet_handler(): Message 0, LIBSWO_PACKET_TYPE_DWT_PC_SAMPLE 
debg|decoder_swo.c:66->default_packet_handler(): Message 0, LIBSWO_PACKET_TYPE_OF 
debg|decoder_swo.c:66->default_packet_handler(): Message 0, LIBSWO_PACKET_TYPE_DWT_PC_SAMPLE 
debg|decoder_swo.c:66->default_packet_handler(): Message 0, LIBSWO_PACKET_TYPE_OF 
debg|decoder_swo.c:66->default_packet_handler(): Message 0, LIBSWO_PACKET_TYPE_DWT_PC_SAMPLE 
debg|decoder_swo.c:66->default_packet_handler(): Message 0, LIBSWO_PACKET_TYPE_OF 
debg|decoder_swo.c:66->default_packet_handler(): Message 0, LIBSWO_PACKET_TYPE_DWT_PC_SAMPLE 
debg|decoder_swo.c:66->default_packet_handler(): Message 0, LIBSWO_PACKET_TYPE_OF 
debg|decoder_swo.c:66->default_packet_handler(): Message 0, LIBSWO_PACKET_TYPE_DWT_PC_SAMPLE 
debg|decoder_swo.c:66->default_packet_handler(): Message 0, LIBSWO_PACKET_TYPE_OF 
debg|decoder_swo.c:214->decoder_swo_data_in(): decoded 21
debg|decoder_swo.c:216->decoder_swo_data_in(): total size decoded 840
debg|decoder_swo.c:217->decoder_swo_data_in(): Total number of decoded packet 912
debg|decoder_swo.c:239->decoder_swo_data_out(): Number of data received 840
debg|pkt_converter.c:594->pkt_convert(): Number of packet received 21
debg|decoder_swo.c:66->default_packet_handler(): Message 0, LIBSWO_PACKET_TYPE_DWT_PC_SAMPLE 
debg|decoder_swo.c:66->default_packet_handler(): Message 0, LIBSWO_PACKET_TYPE_OF 
debg|decoder_swo.c:66->default_packet_handler(): Message 0, LIBSWO_PACKET_TYPE_DWT_PC_SAMPLE 
debg|decoder_swo.c:66->default_packet_handler(): Message 0, LIBSWO_PACKET_TYPE_OF 
debg|decoder_swo.c:66->default_packet_handler(): Message 0, LIBSWO_PACKET_TYPE_DWT_PC_SAMPLE 
debg|decoder_swo.c:66->default_packet_handler(): Message 0, LIBSWO_PACKET_TYPE_OF 
debg|decoder_swo.c:66->default_packet_handler(): Message 0, LIBSWO_PACKET_TYPE_DWT_PC_SAMPLE 
debg|decoder_swo.c:66->default_packet_handler(): Message 0, LIBSWO_PACKET_TYPE_OF 
debg|decoder_swo.c:66->default_packet_handler(): Message 0, LIBSWO_PACKET_TYPE_DWT_PC_SAMPLE 
debg|dewarn|processing.c:49->processing_data_out_default(): No callback defined yet
coder_swo.c:66->default_packet_handler(): Message 0, LIBSWO_PACKET_TYPE_OF 
debg|decoder_swo.c:66->default_packet_handler(): Message 0, LIBSWO_PACKET_TYPE_DWT_PC_SAMPLE 
debg|decoder_swo.c:66->default_packet_handler(): Message 0, LIBSWO_PACKET_TYPE_OF 
debg|decoder_swo.c:66->default_packet_handler(): Message 0, LIBSWO_PACKET_TYPE_DWT_PC_SAMPLE 
debg|decoder_swo.c:66->default_packet_handler(): Message 0, LIBSWO_PACKET_TYPE_OF 
debg|decoder_swo.c:66->default_packet_handler(): Message 0, LIBSWO_PACKET_TYPE_DWT_PC_SAMPLE 
debg|decoder_swo.c:66->default_packet_handler(): Message 0, LIBSWO_PACKET_TYPE_OF 
debg|decoder_swo.c:66->default_packet_handler(): Message 0, LIBSWO_PACKET_TYPE_DWT_PC_SAMPLE 
debg|decoder_swo.c:66->default_packet_handler(): Message 0, LIBSWO_PACKET_TYPE_OF 
debg|decoder_swo.c:66->default_packet_handler(): Message 0, LIBSWO_PACKET_TYPE_DWT_PC_SAMPLE 
debg|decoder_swo.c:66->default_packet_handler(): Message 0, LIBSWO_PACKET_TYPE_OF 
debg|decoder_swo.c:66->default_packet_handler(): Message 0, LIBSWO_PACKET_TYPE_DWT_PC_SAMPLE 
debg|decoder_swo.c:66->default_packet_handler(): Message 0, LIBSWO_PACKET_TYPE_OF 
debg|decoder_swo.c:66->default_packet_handler(): Message 0, LIBSWO_PACKET_TYPE_DWT_PC_SAMPLE 
debg|decoder_swo.c:66->default_packet_handler(): Message 0, LIBSWO_PACKET_TYPE_OF 
debg|decoder_swo.c:66->default_packet_handler(): Message 0, LIBSWO_PACKET_TYPE_DWT_PC_SAMPLE 
debg|decoder_swo.c:66->default_packet_handler(): Message 0, LIBSWO_PACKET_TYPE_OF 
debg|decoder_swo.c:66->default_packet_handler(): Message 0, LIBSWO_PACKET_TYPE_DWT_PC_SAMPLE 
debg|decoder_swo.c:66->default_packet_handler(): Message 0, LIBSWO_PACKET_TYPE_OF 
debg|decoder_swo.c:66->default_packet_handler(): Message 0, LIBSWO_PACKET_TYPE_DWT_PC_SAMPLE 
debg|decoder_swo.c:66->default_packet_handler(): Message 0, LIBSWO_PACKET_TYPE_OF 
debg|decoder_swo.c:66->default_packet_handler(): Message 0, LIBSWO_PACKET_TYPE_DWT_PC_SAMPLE 
debg|decoder_swo.c:66->default_packet_handler(): Message 0, LIBSWO_PACKET_TYPE_OF 
debg|decoder_swo.c:66->default_packet_handler(): Message 0, LIBSWO_PACKET_TYPE_DWT_PC_SAMPLE 
debg|decoder_swo.c:66->default_packet_handler(): Message 0, LIBSWO_PACKET_TYPE_OF 
debg|decoder_swo.c:66->default_packet_handler(): Message 0, LIBSWO_PACKET_TYPE_DWT_PC_SAMPLE 
debg|decoder_swo.c:66->default_packet_handler(): Message 0, LIBSWO_PACKET_TYPE_OF 
debg|decoder_swo.c:66->default_packet_handler(): Message 0, LIBSWO_PACKET_TYPE_DWT_PC_SAMPLE 
debg|decoder_swo.c:66->default_packet_handler(): Message 0, LIBSWO_PACKET_TYPE_OF 
debg|decoder_swo.c:66->default_packet_handler(): Message 0, LIBSWO_PACKET_TYPE_DWT_PC_SAMPLE 
debg|decoder_swo.c:66->default_packet_handler(): Message 0, LIBSWO_PACKET_TYPE_OF 
debg|decoder_swo.c:66->default_packet_handler(): Message 0, LIBSWO_PACKET_TYPE_DWT_PC_SAMPLE 
debg|decoder_swo.c:66->default_packet_handler(): Message 0, LIBSWO_PACKET_TYPE_OF 
debg|decoder_swo.c:66->default_packet_handler(): Message 0, LIBSWO_PACKET_TYPE_DWT_PC_SAMPLE 
debg|decoder_swo.c:214->decoder_swo_data_in(): decoded 22
debg|decoder_swo.c:216->decoder_swo_data_in(): total size decoded 880
debg|decoder_swo.c:217->decoder_swo_data_in(): Total number of decoded packet 934
debg|decoder_swo.c:239->decoder_swo_data_out(): Number of data received 880
debg|pkt_converter.c:594->pkt_convert(): Number of packet received 22
debg|decoder_swo.c:66->default_packet_handler(): Message 0, LIBSWO_PACKET_TYPE_OF 
debg|decoder_swo.c:66->default_packet_handler(): Message 0, LIBSWO_PACKET_TYPE_DWT_PC_SAMPLE 
debg|decoder_swo.c:66->default_packet_handler(): Message 0, LIBSWO_PACKET_TYPE_OF 
debg|decoder_swo.c:66->default_packet_handler(): Message 0, LIBSWO_PACKET_TYPE_DWT_PC_SAMPLE 
debg|decoder_swo.c:66->default_packet_handler(): Message 0, LIBSWO_PACKET_TYPE_OF 
debg|decoder_swo.c:66->default_packet_handler(): Message 0, LIBSWO_PACKET_TYPE_DWT_PC_SAMPLE 
debg|decoder_swo.c:66->default_packet_handler(): Message 0, LIBSWO_PACKET_TYPE_OF 
debg|decoder_swo.c:66->default_packet_handler(): Message 0, LIBSWO_PACKET_TYPE_DWT_PC_SAMPLE 
debg|decoder_swo.c:66->defaultwarn|processing.c:49->processing_data_out_default(): No callback defined yet
_packet_handler(): Message 0, LIBSWO_PACKET_TYPE_OF 
debg|decoder_swo.c:66->default_packet_handler(): Message 0, LIBSWO_PACKET_TYPE_DWT_PC_SAMPLE 
debg|decoder_swo.c:66->default_packet_handler(): Message 0, LIBSWO_PACKET_TYPE_OF 
debg|decoder_swo.c:66->default_packet_handler(): Message 0, LIBSWO_PACKET_TYPE_DWT_PC_SAMPLE 
debg|decoder_swo.c:66->default_packet_handler(): Message 0, LIBSWO_PACKET_TYPE_OF 
debg|decoder_swo.c:66->default_packet_handler(): Message 0, LIBSWO_PACKET_TYPE_DWT_PC_SAMPLE 
debg|decoder_swo.c:66->default_packet_handler(): Message 0, LIBSWO_PACKET_TYPE_OF 
debg|decoder_swo.c:66->default_packet_handler(): Message 0, LIBSWO_PACKET_TYPE_DWT_PC_SAMPLE 
debg|decoder_swo.c:66->default_packet_handler(): Message 0, LIBSWO_PACKET_TYPE_OF 
debg|decoder_swo.c:66->default_packet_handler(): Message 0, LIBSWO_PACKET_TYPE_DWT_PC_SAMPLE 
debg|decoder_swo.c:66->default_packet_handler(): Message 0, LIBSWO_PACKET_TYPE_OF 
debg|decoder_swo.c:66->default_packet_handler(): Message 0, LIBSWO_PACKET_TYPE_DWT_PC_SAMPLE 
debg|decoder_swo.c:66->default_packet_handler(): Message 0, LIBSWO_PACKET_TYPE_OF 
debg|decoder_swo.c:66->default_packet_handler(): Message 0, LIBSWO_PACKET_TYPE_DWT_PC_SAMPLE 
debg|decoder_swo.c:66->default_packet_handler(): Message 0, LIBSWO_PACKET_TYPE_OF 
debg|decoder_swo.c:66->default_packet_handler(): Message 0, LIBSWO_PACKET_TYPE_DWT_PC_SAMPLE 
debg|decoder_swo.c:66->default_packet_handler(): Message 0, LIBSWO_PACKET_TYPE_OF 
debg|decoder_swo.c:66->default_packet_handler(): Message 0, LIBSWO_PACKET_TYPE_DWT_PC_SAMPLE 
debg|decoder_swo.c:66->default_packet_handler(): Message 0, LIBSWO_PACKET_TYPE_OF 
debg|decoder_swo.c:66->default_packet_handler(): Message 0, LIBSWO_PACKET_TYPE_DWT_PC_SAMPLE 
debg|decoder_swo.c:66->default_packet_handler(): Message 0, LIBSWO_PACKET_TYPE_OF 
debg|decoder_swo.c:66->default_packet_handler(): Message 0, LIBSWO_PACKET_TYPE_DWT_PC_SAMPLE 
debg|decoder_swo.c:66->default_packet_handler(): Message 0, LIBSWO_PACKET_TYPE_OF 
debg|decoder_swo.c:66->default_packet_handler(): Message 0, LIBSWO_PACKET_TYPE_DWT_PC_SAMPLE 
debg|decoder_swo.c:66->default_packet_handler(): Message 0, LIBSWO_PACKET_TYPE_OF 
debg|decoder_swo.c:66->default_packet_handler(): Message 0, LIBSWO_PACKET_TYPE_DWT_PC_SAMPLE 
debg|decoder_swo.c:66->default_packet_handler(): Message 0, LIBSWO_PACKET_TYPE_OF 
debg|decoder_swo.c:66->default_packet_handler(): Message 0, LIBSWO_PACKET_TYPE_DWT_PC_SAMPLE 
debg|decoder_swo.c:66->default_packet_handler(): Message 0, LIBSWO_PACKET_TYPE_OF 
debg|decoder_swo.c:66->default_packet_handler(): Message 0, LIBSWO_PACKET_TYPE_DWT_PC_SAMPLE 
debg|decoder_swo.c:66->default_packet_handler(): Message 0, LIBSWO_PACKET_TYPE_OF 
debg|decoder_swo.c:66->default_packet_handler(): Message 0, LIBSWO_PACKET_TYPE_DWT_PC_SAMPLE 
debg|decoder_swo.c:66->default_packet_handler(): Message 0, LIBSWO_PACKET_TYPE_OF 
debg|decoder_swo.c:66->default_packet_handler(): Message 0, LIBSWO_PACKET_TYPE_DWT_PC_SAMPLE 
debg|decoder_swo.c:66->default_packet_handler(): Message 0, LIBSWO_PACKET_TYPE_OF 
debg|decoder_swo.c:214->decoder_swo_data_in(): decoded 21
debg|decoder_swo.c:216->decoder_swo_data_in(): total size decoded 840
debg|decoder_swo.c:217->decoder_swo_data_in(): Total number of decoded packet 955
debg|decoder_swo.c:239->decoder_swo_data_out(): Number of data received 840
debg|pkt_converter.c:594->pkt_convert(): Number of packet received 21
debg|decoder_swo.c:66->default_packet_handler(): Message 0, LIBSWO_PACKET_TYPE_DWT_PC_SAMPLE 
debg|decoder_swo.c:66->default_packet_handler(): Message 0, LIBSWO_PACKET_TYPE_OF 
debg|decoder_swo.c:66->default_packet_handler(): Message 0, LIBSWO_PACKET_TYPE_DWT_PC_SAMPLE 
debg|decoder_swo.c:66->default_packet_handler(): Message 0, LIBSWO_PACKET_TYPE_OF 
debg|decoder_swo.c:66->default_packet_handler(): Message 0, LIBSWO_PACKET_TYPE_DWT_PC_SAMPLE 
debg|decoder_swo.c:66->default_packet_handler(): Message 0, LIBSWO_PACKET_TYPE_OF 
debg|decoder_swo.c:66->default_packet_handler(): Message 0, LIBSWO_PACKET_TYPE_DWT_PC_SAMPLE 
debg|decoder_swo.c:66->default_packet_handler(): Messwarn|processing.c:49->processing_data_out_default(): No callback defined yet
warn|perf_ex.c:368->perf_ex_data_in(): Cannot find function at address 5600ea
age 0, LIBSWO_PACKET_TYPE_OF 
debg|decoder_swo.c:66->default_packet_handler(): Message 0, LIBSWO_PACKET_TYPE_DWT_PC_SAMPLE 
debg|decoder_swo.c:66->default_packet_handler(): Message 0, LIBSWO_PACKET_TYPE_OF 
debg|decoder_swo.c:66->default_packet_handler(): Message 0, LIBSWO_PACKET_TYPE_DWT_PC_SAMPLE 
debg|decoder_swo.c:66->default_packet_handler(): Message 0, LIBSWO_PACKET_TYPE_OF 
debg|decoder_swo.c:66->default_packet_handler(): Message 0, LIBSWO_PACKET_TYPE_UNKNOWN 
debg|decoder_swo.c:66->default_packet_handler(): Message 0, LIBSWO_PACKET_TYPE_DWT_PC_SAMPLE 
debg|decoder_swo.c:66->default_packet_handler(): Message 0, LIBSWO_PACKET_TYPE_OF 
debg|decoder_swo.c:66->default_packet_handler(): Message 0, LIBSWO_PACKET_TYPE_DWT_PC_SAMPLE 
debg|decoder_swo.c:66->default_packet_handler(): Message 0, LIBSWO_PACKET_TYPE_OF 
debg|decoder_swo.c:66->default_packet_handler(): Message 0, LIBSWO_PACKET_TYPE_DWT_PC_SAMPLE 
debg|decoder_swo.c:66->default_packet_handler(): Message 0, LIBSWO_PACKET_TYPE_OF 
debg|decoder_swo.c:66->default_packet_handler(): Message 0, LIBSWO_PACKET_TYPE_DWT_PC_SAMPLE 
debg|decoder_swo.c:66->default_packet_handler(): Message 0, LIBSWO_PACKET_TYPE_OF 
debg|decoder_swo.c:66->default_packet_handler(): Message 0, LIBSWO_PACKET_TYPE_DWT_PC_SAMPLE 
debg|decoder_swo.c:66->default_packet_handler(): Message 0, LIBSWO_PACKET_TYPE_OF 
debg|decoder_swo.c:66->default_packet_handler(): Message 0, LIBSWO_PACKET_TYPE_DWT_PC_SAMPLE 
debg|decoder_swo.c:66->default_packet_handler(): Message 0, LIBSWO_PACKET_TYPE_OF 
debg|decoder_swo.c:66->default_packet_handler(): Message 0, LIBSWO_PACKET_TYPE_DWT_PC_SAMPLE 
debg|decoder_swo.c:66->default_packet_handler(): Message 0, LIBSWO_PACKET_TYPE_OF 
debg|decoder_swo.c:66->default_packet_handler(): Message 0, LIBSWO_PACKET_TYPE_DWT_PC_SAMPLE 
debg|decoder_swo.c:66->default_packet_handler(): Message 0, LIBSWO_PACKET_TYPE_OF 
debg|decoder_swo.c:66->default_packet_handler(): Message 0, LIBSWO_PACKET_TYPE_DWT_PC_SAMPLE 
debg|decoder_swo.c:66->default_packet_handler(): Message 0, LIBSWO_PACKET_TYPE_OF 
debg|decoder_swo.c:66->default_packet_handler(): Message 0, LIBSWO_PACKET_TYPE_DWT_PC_SAMPLE 
debg|decoder_swo.c:66->default_packet_handler(): Message 0, LIBSWO_PACKET_TYPE_OF 
debg|decoder_swo.c:66->default_packet_handler(): Message 0, LIBSWO_PACKET_TYPE_DWT_PC_SAMPLE 
debg|decoder_swo.c:66->default_packet_handler(): Message 0, LIBSWO_PACKET_TYPE_EXT 
debg|decoder_swo.c:66->default_packet_handler(): Message 0, LIBSWO_PACKET_TYPE_OF 
debg|decoder_swo.c:66->default_packet_handler(): Message 0, LIBSWO_PACKET_TYPE_DWT_PC_SAMPLE 
debg|decoder_swo.c:66->default_packet_handler(): Message 0, LIBSWO_PACKET_TYPE_OF 
debg|decoder_swo.c:66->default_packet_handler(): Message 0, LIBSWO_PACKET_TYPE_DWT_PC_SAMPLE 
debg|decoder_swo.c:66->default_packet_handler(): Message 0, LIBSWO_PACKET_TYPE_OF 
debg|decoder_swo.c:66->default_packet_handler(): Message 0, LIBSWO_PACKET_TYPE_DWT_PC_SAMPLE 
debg|decoder_swo.c:66->default_packet_handler(): Message 0, LIBSWO_PACKET_TYPE_OF 
debg|decoder_swo.c:66->default_packet_handler(): Message 0, LIBSWO_PACKET_TYPE_DWT_PC_SAMPLE 
debg|decoder_swo.c:66->default_packet_handler(): Message 0, LIBSWO_PACKET_TYPE_OF 
debg|decoder_swo.c:214->decoder_swo_data_in(): decoded 21
debg|decoder_swo.c:216->decoder_swo_data_in(): total size decoded 840
debg|decoder_swo.c:217->decoder_swo_data_in(): Total number of decoded packet 976
debg|decoder_swo.c:239->decoder_swo_data_out(): Number of data received 840
debg|pkt_converter.c:594->pkt_convert(): Number of packet received 21
debg|decoder_swo.c:66->default_packet_handler(): Message 0, LIBSWO_PACKET_TYPE_DWT_PC_SAMPLE 
debg|decoder_swo.c:66->default_packet_handler(): Message 0, LIBSWO_PACKET_TYPE_OF 
debg|decoder_swo.c:66->default_packet_handler(): Message 0, LIBSWO_PACKET_TYPE_DWT_PC_SAMPLE 
debg|decoder_swo.c:66->default_packet_handler(): Message 0, LIBSWO_PACKET_TYPE_OF 
debg|decoder_swo.c:66->default_packet_handler(): Message 0, LIBSWO_PACKET_TYPE_DWT_PC_SAMPLE 
debg|decoder_swo.c:66->default_packet_handler(): Message 0, LIBSWO_PACKET_TYPE_OFwarn|processing.c:49->processing_data_out_default(): No callback defined yet
 
debg|decoder_swo.c:66->default_packet_handler(): Message 0, LIBSWO_PACKET_TYPE_DWT_PC_SAMPLE 
debg|decoder_swo.c:66->default_packet_handler(): Message 0, LIBSWO_PACKET_TYPE_OF 
debg|decoder_swo.c:66->default_packet_handler(): Message 0, LIBSWO_PACKET_TYPE_DWT_PC_SAMPLE 
debg|decoder_swo.c:66->default_packet_handler(): Message 0, LIBSWO_PACKET_TYPE_OF 
debg|decoder_swo.c:66->default_packet_handler(): Message 0, LIBSWO_PACKET_TYPE_DWT_PC_SAMPLE 
debg|decoder_swo.c:66->default_packet_handler(): Message 0, LIBSWO_PACKET_TYPE_OF 
debg|decoder_swo.c:66->default_packet_handler(): Message 0, LIBSWO_PACKET_TYPE_DWT_PC_SAMPLE 
debg|decoder_swo.c:66->default_packet_handler(): Message 0, LIBSWO_PACKET_TYPE_OF 
debg|decoder_swo.c:66->default_packet_handler(): Message 0, LIBSWO_PACKET_TYPE_DWT_PC_SAMPLE 
debg|decoder_swo.c:66->default_packet_handler(): Message 0, LIBSWO_PACKET_TYPE_OF 
debg|decoder_swo.c:66->default_packet_handler(): Message 0, LIBSWO_PACKET_TYPE_DWT_PC_SAMPLE 
debg|decoder_swo.c:66->default_packet_handler(): Message 0, LIBSWO_PACKET_TYPE_OF 
debg|decoder_swo.c:66->default_packet_handler(): Message 0, LIBSWO_PACKET_TYPE_DWT_PC_SAMPLE 
debg|decoder_swo.c:66->default_packet_handler(): Message 0, LIBSWO_PACKET_TYPE_OF 
debg|decoder_swo.c:66->default_packet_handler(): Message 0, LIBSWO_PACKET_TYPE_DWT_PC_SAMPLE 
debg|decoder_swo.c:66->default_packet_handler(): Message 0, LIBSWO_PACKET_TYPE_OF 
debg|decoder_swo.c:66->default_packet_handler(): Message 0, LIBSWO_PACKET_TYPE_DWT_PC_SAMPLE 
debg|decoder_swo.c:66->default_packet_handler(): Message 0, LIBSWO_PACKET_TYPE_OF 
debg|decoder_swo.c:66->default_packet_handler(): Message 0, LIBSWO_PACKET_TYPE_DWT_PC_SAMPLE 
debg|decoder_swo.c:66->default_packet_handler(): Message 0, LIBSWO_PACKET_TYPE_OF 
debg|decoder_swo.c:66->default_packet_handler(): Message 0, LIBSWO_PACKET_TYPE_DWT_PC_SAMPLE 
debg|decoder_swo.c:66->default_packet_handler(): Message 0, LIBSWO_PACKET_TYPE_OF 
debg|decoder_swo.c:66->default_packet_handler(): Message 0, LIBSWO_PACKET_TYPE_DWT_PC_SAMPLE 
debg|decoder_swo.c:66->default_packet_handler(): Message 0, LIBSWO_PACKET_TYPE_OF 
debg|decoder_swo.c:66->default_packet_handler(): Message 0, LIBSWO_PACKET_TYPE_DWT_PC_SAMPLE 
debg|decoder_swo.c:66->default_packet_handler(): Message 0, LIBSWO_PACKET_TYPE_OF 
debg|decoder_swo.c:66->default_packet_handler(): Message 0, LIBSWO_PACKET_TYPE_DWT_PC_SAMPLE 
debg|decoder_swo.c:66->default_packet_handler(): Message 0, LIBSWO_PACKET_TYPE_OF 
debg|decoder_swo.c:66->default_packet_handler(): Message 0, LIBSWO_PACKET_TYPE_DWT_PC_SAMPLE 
debg|decoder_swo.c:66->default_packet_handler(): Message 0, LIBSWO_PACKET_TYPE_OF 
debg|decoder_swo.c:66->default_packet_handler(): Message 0, LIBSWO_PACKET_TYPE_DWT_PC_SAMPLE 
debg|decoder_swo.c:66->default_packet_handler(): Message 0, LIBSWO_PACKET_TYPE_OF 
debg|decoder_swo.c:66->default_packet_handler(): Message 0, LIBSWO_PACKET_TYPE_DWT_PC_SAMPLE 
debg|decoder_swo.c:66->default_packet_handler(): Message 0, LIBSWO_PACKET_TYPE_OF 
debg|decoder_swo.c:66->default_packet_handler(): Message 0, LIBSWO_PACKET_TYPE_DWT_PC_SAMPLE 
debg|decoder_swo.c:66->default_packet_handler(): Message 0, LIBSWO_PACKET_TYPE_OF 
debg|decoder_swo.c:214->decoder_swo_data_in(): decoded 21
debg|decoder_swo.c:216->decoder_swo_data_in(): total size decoded 840
debg|decoder_swo.c:217->decoder_swo_data_in(): Total number of decoded packet 997
debg|decoder_swo.c:239->decoder_swo_data_out(): Number of data received 840
debg|pkt_converter.c:594->pkt_convert(): Number of packet received 21
debg|decoder_swo.c:66->default_packet_handler(): Message 0, LIBSWO_PACKET_TYPE_DWT_PC_SAMPLE 
debg|decoder_swo.c:66->default_packet_handler(): Message 0, LIBSWO_PACKET_TYPE_OF 
debg|decoder_swo.c:66->default_packet_handler(): Message 0, LIBSWO_PACKET_TYPE_DWT_PC_SAMPLE 
debg|decoder_swo.c:66->default_packet_handler(): Message 0, LIBSWO_PACKET_TYPE_OF 
debg|decoder_swo.c:66->default_packet_handler(): Message 0, LIBSWO_PACKET_TYPE_DWT_PC_SAMPLE 
debg|decoder_swo.c:66->default_packet_handler(): Message 0, LIBSWO_PACKET_TYPE_OF 
debg|decoder_swo.c:66warn|processing.c:49->processing_data_out_default(): No callback defined yet
warn|perf_ex.c:368->perf_ex_data_in(): Cannot find function at address 170056ec
->default_packet_handler(): Message 0, LIBSWO_PACKET_TYPE_DWT_PC_SAMPLE 
debg|decoder_swo.c:66->default_packet_handler(): Message 0, LIBSWO_PACKET_TYPE_OF 
debg|decoder_swo.c:66->default_packet_handler(): Message 0, LIBSWO_PACKET_TYPE_DWT_PC_SAMPLE 
debg|decoder_swo.c:66->default_packet_handler(): Message 0, LIBSWO_PACKET_TYPE_OF 
debg|decoder_swo.c:66->default_packet_handler(): Message 0, LIBSWO_PACKET_TYPE_DWT_PC_SAMPLE 
debg|decoder_swo.c:66->default_packet_handler(): Message 0, LIBSWO_PACKET_TYPE_OF 
debg|decoder_swo.c:66->default_packet_handler(): Message 0, LIBSWO_PACKET_TYPE_DWT_PC_SAMPLE 
debg|decoder_swo.c:66->default_packet_handler(): Message 0, LIBSWO_PACKET_TYPE_UNKNOWN 
debg|decoder_swo.c:66->default_packet_handler(): Message 0, LIBSWO_PACKET_TYPE_INST 
debg|decoder_swo.c:66->default_packet_handler(): Message 0, LIBSWO_PACKET_TYPE_EXT 
debg|decoder_swo.c:66->default_packet_handler(): Message 0, LIBSWO_PACKET_TYPE_OF 
debg|decoder_swo.c:66->default_packet_handler(): Message 0, LIBSWO_PACKET_TYPE_DWT_PC_SAMPLE 
debg|decoder_swo.c:66->default_packet_handler(): Message 0, LIBSWO_PACKET_TYPE_OF 
debg|decoder_swo.c:66->default_packet_handler(): Message 0, LIBSWO_PACKET_TYPE_DWT_PC_SAMPLE 
debg|decoder_swo.c:66->default_packet_handler(): Message 0, LIBSWO_PACKET_TYPE_OF 
debg|decoder_swo.c:66->default_packet_handler(): Message 0, LIBSWO_PACKET_TYPE_DWT_PC_SAMPLE 
debg|decoder_swo.c:66->default_packet_handler(): Message 0, LIBSWO_PACKET_TYPE_OF 
debg|decoder_swo.c:66->default_packet_handler(): Message 0, LIBSWO_PACKET_TYPE_DWT_PC_SAMPLE 
debg|decoder_swo.c:66->default_packet_handler(): Message 0, LIBSWO_PACKET_TYPE_OF 
debg|decoder_swo.c:66->default_packet_handler(): Message 0, LIBSWO_PACKET_TYPE_DWT_PC_SAMPLE 
debg|decoder_swo.c:66->default_packet_handler(): Message 0, LIBSWO_PACKET_TYPE_OF 
debg|decoder_swo.c:66->default_packet_handler(): Message 0, LIBSWO_PACKET_TYPE_DWT_PC_SAMPLE 
debg|decoder_swo.c:66->default_packet_handler(): Message 0, LIBSWO_PACKET_TYPE_OF 
debg|decoder_swo.c:66->default_packet_handler(): Message 0, LIBSWO_PACKET_TYPE_DWT_PC_SAMPLE 
debg|decoder_swo.c:66->default_packet_handler(): Message 0, LIBSWO_PACKET_TYPE_OF 
debg|decoder_swo.c:66->default_packet_handler(): Message 0, LIBSWO_PACKET_TYPE_DWT_PC_SAMPLE 
debg|decoder_swo.c:66->default_packet_handler(): Message 0, LIBSWO_PACKET_TYPE_OF 
debg|decoder_swo.c:66->default_packet_handler(): Message 0, LIBSWO_PACKET_TYPE_DWT_PC_SAMPLE 
debg|decoder_swo.c:66->default_packet_handler(): Message 0, LIBSWO_PACKET_TYPE_OF 
debg|decoder_swo.c:66->default_packet_handler(): Message 0, LIBSWO_PACKET_TYPE_DWT_PC_SAMPLE 
debg|decoder_swo.c:66->default_packet_handler(): Message 0, LIBSWO_PACKET_TYPE_OF 
debg|decoder_swo.c:66->default_packet_handler(): Message 0, LIBSWO_PACKET_TYPE_DWT_PC_SAMPLE 
debg|decoder_swo.c:66->default_packet_handler(): Message 0, LIBSWO_PACKET_TYPE_OF 
debg|decoder_swo.c:66->default_packet_handler(): Message 0, LIBSWO_PACKET_TYPE_DWT_PC_SAMPLE 
debg|decoder_swo.c:66->default_packet_handler(): Message 0, LIBSWO_PACKET_TYPE_OF 
debg|decoder_swo.c:66->default_packet_handler(): Message 0, LIBSWO_PACKET_TYPE_DWT_PC_SAMPLE 
debg|decoder_swo.c:66->default_packet_handler(): Message 0, LIBSWO_PACKET_TYPE_OF 
debg|decoder_swo.c:66->default_packet_handler(): Message 0, LIBSWO_PACKET_TYPE_DWT_PC_SAMPLE 
debg|decoder_swo.c:66->default_packet_handler(): Message 0, LIBSWO_PACKET_TYPE_OF 
debg|decoder_swo.c:214->decoder_swo_data_in(): decoded 21
debg|decoder_swo.c:216->decoder_swo_data_in(): total size decoded 840
debg|decoder_swo.c:217->decoder_swo_data_in(): Total number of decoded packet 1018
debg|decoder_swo.c:239->decoder_swo_data_out(): Number of data received 840
debg|pkt_converter.c:594->pkt_convert(): Number of packet received 21
debg|decoder_swo.c:66->default_packet_handler(): Message 0, LIBSWO_PACKET_TYPE_DWT_PC_SAMPLE 
debg|decoder_swo.c:66->default_packet_handler(): Message 0, LIBSWO_PACKET_TYPE_OF 
debg|decoder_swo.c:66->default_packet_handler(): Message 0, LIBSWO_PACKET_TYPE_DWT_PC_SAMPLE 
debg|decoder_swo.c:66->default_packet_handler(warn|processing.c:49->processing_data_out_default(): No callback defined yet
): Message 0, LIBSWO_PACKET_TYPE_OF 
debg|decoder_swo.c:66->default_packet_handler(): Message 0, LIBSWO_PACKET_TYPE_DWT_PC_SAMPLE 
debg|decoder_swo.c:66->default_packet_handler(): Message 0, LIBSWO_PACKET_TYPE_OF 
debg|decoder_swo.c:66->default_packet_handler(): Message 0, LIBSWO_PACKET_TYPE_DWT_PC_SAMPLE 
debg|decoder_swo.c:66->default_packet_handler(): Message 0, LIBSWO_PACKET_TYPE_OF 
debg|decoder_swo.c:66->default_packet_handler(): Message 0, LIBSWO_PACKET_TYPE_DWT_PC_SAMPLE 
debg|decoder_swo.c:66->default_packet_handler(): Message 0, LIBSWO_PACKET_TYPE_OF 
debg|decoder_swo.c:66->default_packet_handler(): Message 0, LIBSWO_PACKET_TYPE_DWT_PC_SAMPLE 
debg|decoder_swo.c:66->default_packet_handler(): Message 0, LIBSWO_PACKET_TYPE_OF 
debg|decoder_swo.c:66->default_packet_handler(): Message 0, LIBSWO_PACKET_TYPE_DWT_PC_SAMPLE 
debg|decoder_swo.c:66->default_packet_handler(): Message 0, LIBSWO_PACKET_TYPE_OF 
debg|decoder_swo.c:66->default_packet_handler(): Message 0, LIBSWO_PACKET_TYPE_DWT_PC_SAMPLE 
debg|decoder_swo.c:66->default_packet_handler(): Message 0, LIBSWO_PACKET_TYPE_OF 
debg|decoder_swo.c:66->default_packet_handler(): Message 0, LIBSWO_PACKET_TYPE_DWT_PC_SAMPLE 
debg|decoder_swo.c:66->default_packet_handler(): Message 0, LIBSWO_PACKET_TYPE_OF 
debg|decoder_swo.c:66->default_packet_handler(): Message 0, LIBSWO_PACKET_TYPE_DWT_PC_SAMPLE 
debg|decoder_swo.c:66->default_packet_handler(): Message 0, LIBSWO_PACKET_TYPE_OF 
debg|decoder_swo.c:66->default_packet_handler(): Message 0, LIBSWO_PACKET_TYPE_DWT_PC_SAMPLE 
debg|decoder_swo.c:66->default_packet_handler(): Message 0, LIBSWO_PACKET_TYPE_OF 
debg|decoder_swo.c:66->default_packet_handler(): Message 0, LIBSWO_PACKET_TYPE_DWT_PC_SAMPLE 
debg|decoder_swo.c:66->default_packet_handler(): Message 0, LIBSWO_PACKET_TYPE_OF 
debg|decoder_swo.c:66->default_packet_handler(): Message 0, LIBSWO_PACKET_TYPE_DWT_PC_SAMPLE 
debg|decoder_swo.c:66->default_packet_handler(): Message 0, LIBSWO_PACKET_TYPE_OF 
debg|decoder_swo.c:66->default_packet_handler(): Message 0, LIBSWO_PACKET_TYPE_DWT_PC_SAMPLE 
debg|decoder_swo.c:66->default_packet_handler(): Message 0, LIBSWO_PACKET_TYPE_OF 
debg|decoder_swo.c:66->default_packet_handler(): Message 0, LIBSWO_PACKET_TYPE_DWT_PC_SAMPLE 
debg|decoder_swo.c:66->default_packet_handler(): Message 0, LIBSWO_PACKET_TYPE_OF 
debg|decoder_swo.c:66->default_packet_handler(): Message 0, LIBSWO_PACKET_TYPE_DWT_PC_SAMPLE 
debg|decoder_swo.c:66->default_packet_handler(): Message 0, LIBSWO_PACKET_TYPE_OF 
debg|decoder_swo.c:66->default_packet_handler(): Message 0, LIBSWO_PACKET_TYPE_DWT_PC_SAMPLE 
debg|decoder_swo.c:66->default_packet_handler(): Message 0, LIBSWO_PACKET_TYPE_OF 
debg|decoder_swo.c:66->default_packet_handler(): Message 0, LIBSWO_PACKET_TYPE_DWT_PC_SAMPLE 
debg|decoder_swo.c:66->default_packet_handler(): Message 0, LIBSWO_PACKET_TYPE_OF 
debg|decoder_swo.c:66->default_packet_handler(): Message 0, LIBSWO_PACKET_TYPE_DWT_PC_SAMPLE 
debg|decoder_swo.c:66->default_packet_handler(): Message 0, LIBSWO_PACKET_TYPE_OF 
debg|decoder_swo.c:66->default_packet_handler(): Message 0, LIBSWO_PACKET_TYPE_DWT_PC_SAMPLE 
debg|decoder_swo.c:66->default_packet_handler(): Message 0, LIBSWO_PACKET_TYPE_OF 
debg|decoder_swo.c:66->default_packet_handler(): Message 0, LIBSWO_PACKET_TYPE_DWT_PC_SAMPLE 
debg|decoder_swo.c:66->default_packet_handler(): Message 0, LIBSWO_PACKET_TYPE_OF 
debg|decoder_swo.c:214->decoder_swo_data_in(): decoded 21
debg|decoder_swo.c:216->decoder_swo_data_in(): total size decoded 840
debg|decoder_swo.c:217->decoder_swo_data_in(): Total number of decoded packet 1039
debg|decoder_swo.c:239->decoder_swo_data_out(): Number of data received 840
debg|pkt_converter.c:594->pkt_convert(): Number of packet received 21
debg|decoder_swo.c:66->default_packet_handler(): Message 0, LIBSWO_PACKET_TYPE_DWT_PC_SAMPLE 
debg|decoder_swo.c:66->default_packet_handler(): Message 0, LIBSWO_PACKET_TYPE_OF 
debg|decoder_swo.c:66->default_packet_handler(): Message 0, LIBSWO_PACKET_TYPE_DWT_PC_SAMPLE 
debg|decoder_swo.c:66->default_packet_handler(): Message 0, LIBSWO_Pwarn|processing.c:49->processing_data_out_default(): No callback defined yet
ACKET_TYPE_OF 
debg|decoder_swo.c:66->default_packet_handler(): Message 0, LIBSWO_PACKET_TYPE_DWT_PC_SAMPLE 
debg|decoder_swo.c:66->default_packet_handler(): Message 0, LIBSWO_PACKET_TYPE_OF 
debg|decoder_swo.c:66->default_packet_handler(): Message 0, LIBSWO_PACKET_TYPE_DWT_PC_SAMPLE 
debg|decoder_swo.c:66->default_packet_handler(): Message 0, LIBSWO_PACKET_TYPE_OF 
debg|decoder_swo.c:66->default_packet_handler(): Message 0, LIBSWO_PACKET_TYPE_DWT_PC_SAMPLE 
debg|decoder_swo.c:66->default_packet_handler(): Message 0, LIBSWO_PACKET_TYPE_OF 
debg|decoder_swo.c:66->default_packet_handler(): Message 0, LIBSWO_PACKET_TYPE_DWT_PC_SAMPLE 
debg|decoder_swo.c:66->default_packet_handler(): Message 0, LIBSWO_PACKET_TYPE_OF 
debg|decoder_swo.c:66->default_packet_handler(): Message 0, LIBSWO_PACKET_TYPE_DWT_PC_SAMPLE 
debg|decoder_swo.c:66->default_packet_handler(): Message 0, LIBSWO_PACKET_TYPE_OF 
debg|decoder_swo.c:66->default_packet_handler(): Message 0, LIBSWO_PACKET_TYPE_DWT_PC_SAMPLE 
debg|decoder_swo.c:66->default_packet_handler(): Message 0, LIBSWO_PACKET_TYPE_OF 
debg|decoder_swo.c:66->default_packet_handler(): Message 0, LIBSWO_PACKET_TYPE_DWT_PC_SAMPLE 
debg|decoder_swo.c:66->default_packet_handler(): Message 0, LIBSWO_PACKET_TYPE_OF 
debg|decoder_swo.c:66->default_packet_handler(): Message 0, LIBSWO_PACKET_TYPE_DWT_PC_SAMPLE 
debg|decoder_swo.c:66->default_packet_handler(): Message 0, LIBSWO_PACKET_TYPE_OF 
debg|decoder_swo.c:66->default_packet_handler(): Message 0, LIBSWO_PACKET_TYPE_DWT_PC_SAMPLE 
debg|decoder_swo.c:66->default_packet_handler(): Message 0, LIBSWO_PACKET_TYPE_OF 
debg|decoder_swo.c:66->default_packet_handler(): Message 0, LIBSWO_PACKET_TYPE_DWT_PC_SAMPLE 
debg|decoder_swo.c:66->default_packet_handler(): Message 0, LIBSWO_PACKET_TYPE_OF 
debg|decoder_swo.c:66->default_packet_handler(): Message 0, LIBSWO_PACKET_TYPE_DWT_PC_SAMPLE 
debg|decoder_swo.c:66->default_packet_handler(): Message 0, LIBSWO_PACKET_TYPE_OF 
debg|decoder_swo.c:66->default_packet_handler(): Message 0, LIBSWO_PACKET_TYPE_DWT_PC_SAMPLE 
debg|decoder_swo.c:66->default_packet_handler(): Message 0, LIBSWO_PACKET_TYPE_OF 
debg|decoder_swo.c:66->default_packet_handler(): Message 0, LIBSWO_PACKET_TYPE_DWT_PC_SAMPLE 
debg|decoder_swo.c:66->default_packet_handler(): Message 0, LIBSWO_PACKET_TYPE_OF 
debg|decoder_swo.c:66->default_packet_handler(): Message 0, LIBSWO_PACKET_TYPE_DWT_PC_SAMPLE 
debg|decoder_swo.c:66->default_packet_handler(): Message 0, LIBSWO_PACKET_TYPE_OF 
debg|decoder_swo.c:66->default_packet_handler(): Message 0, LIBSWO_PACKET_TYPE_DWT_PC_SAMPLE 
debg|decoder_swo.c:66->default_packet_handler(): Message 0, LIBSWO_PACKET_TYPE_OF 
debg|decoder_swo.c:66->default_packet_handler(): Message 0, LIBSWO_PACKET_TYPE_DWT_PC_SAMPLE 
debg|decoder_swo.c:66->default_packet_handler(): Message 0, LIBSWO_PACKET_TYPE_OF 
debg|decoder_swo.c:66->default_packet_handler(): Message 0, LIBSWO_PACKET_TYPE_DWT_PC_SAMPLE 
debg|decoder_swo.c:66->default_packet_handler(): Message 0, LIBSWO_PACKET_TYPE_OF 
debg|decoder_swo.c:66->default_packet_handler(): Message 0, LIBSWO_PACKET_TYPE_DWT_PC_SAMPLE 
debg|decoder_swo.c:66->default_packet_handler(): Message 0, LIBSWO_PACKET_TYPE_OF 
debg|decoder_swo.c:66->default_packet_handler(): Message 0, LIBSWO_PACKET_TYPE_DWT_PC_SAMPLE 
debg|decoder_swo.c:66->default_packet_handler(): Message 0, LIBSWO_PACKET_TYPE_OF 
debg|decoder_swo.c:66->default_packet_handler(): Message 0, LIBSWO_PACKET_TYPE_DWT_PC_SAMPLE 
debg|decoder_swo.c:214->decoder_swo_data_in(): decoded 22
debg|decoder_swo.c:216->decoder_swo_data_in(): total size decoded 880
debg|decoder_swo.c:217->decoder_swo_data_in(): Total number of decoded packet 1061
debg|decoder_swo.c:239->decoder_swo_data_out(): Number of data received 880
debg|pkt_converter.c:594->pkt_convert(): Number of packet received 22
debg|decoder_swo.c:66->default_packet_handler(): Message 0, LIBSWO_PACKET_TYPE_OF 
debg|decoder_swo.c:66->default_packet_handler(): Message 0, LIBSWO_PACKET_TYPE_DWT_PC_SAMPLE 
debg|decoder_swo.c:66->default_packet_handler(): Message 0, LIBSWO_PACKET_TYPE_OF 
debg|dewarn|processing.c:49->processing_data_out_default(): No callback defined yet
coder_swo.c:66->default_packet_handler(): Message 0, LIBSWO_PACKET_TYPE_DWT_PC_SAMPLE 
debg|decoder_swo.c:66->default_packet_handler(): Message 0, LIBSWO_PACKET_TYPE_OF 
debg|decoder_swo.c:66->default_packet_handler(): Message 0, LIBSWO_PACKET_TYPE_DWT_PC_SAMPLE 
debg|decoder_swo.c:66->default_packet_handler(): Message 0, LIBSWO_PACKET_TYPE_OF 
debg|decoder_swo.c:66->default_packet_handler(): Message 0, LIBSWO_PACKET_TYPE_DWT_PC_SAMPLE 
debg|decoder_swo.c:66->default_packet_handler(): Message 0, LIBSWO_PACKET_TYPE_OF 
debg|decoder_swo.c:66->default_packet_handler(): Message 0, LIBSWO_PACKET_TYPE_DWT_PC_SAMPLE 
debg|decoder_swo.c:66->default_packet_handler(): Message 0, LIBSWO_PACKET_TYPE_OF 
debg|decoder_swo.c:66->default_packet_handler(): Message 0, LIBSWO_PACKET_TYPE_DWT_PC_SAMPLE 
debg|decoder_swo.c:66->default_packet_handler(): Message 0, LIBSWO_PACKET_TYPE_OF 
debg|decoder_swo.c:66->default_packet_handler(): Message 0, LIBSWO_PACKET_TYPE_DWT_PC_SAMPLE 
debg|decoder_swo.c:66->default_packet_handler(): Message 0, LIBSWO_PACKET_TYPE_OF 
debg|decoder_swo.c:66->default_packet_handler(): Message 0, LIBSWO_PACKET_TYPE_DWT_PC_SAMPLE 
debg|decoder_swo.c:66->default_packet_handler(): Message 0, LIBSWO_PACKET_TYPE_OF 
debg|decoder_swo.c:66->default_packet_handler(): Message 0, LIBSWO_PACKET_TYPE_DWT_PC_SAMPLE 
debg|decoder_swo.c:66->default_packet_handler(): Message 0, LIBSWO_PACKET_TYPE_OF 
debg|decoder_swo.c:66->default_packet_handler(): Message 0, LIBSWO_PACKET_TYPE_DWT_PC_SAMPLE 
debg|decoder_swo.c:66->default_packet_handler(): Message 0, LIBSWO_PACKET_TYPE_OF 
debg|decoder_swo.c:66->default_packet_handler(): Message 0, LIBSWO_PACKET_TYPE_DWT_PC_SAMPLE 
debg|decoder_swo.c:66->default_packet_handler(): Message 0, LIBSWO_PACKET_TYPE_OF 
debg|decoder_swo.c:66->default_packet_handler(): Message 0, LIBSWO_PACKET_TYPE_DWT_PC_SAMPLE 
debg|decoder_swo.c:66->default_packet_handler(): Message 0, LIBSWO_PACKET_TYPE_OF 
debg|decoder_swo.c:66->default_packet_handler(): Message 0, LIBSWO_PACKET_TYPE_DWT_PC_SAMPLE 
debg|decoder_swo.c:66->default_packet_handler(): Message 0, LIBSWO_PACKET_TYPE_OF 
debg|decoder_swo.c:66->default_packet_handler(): Message 0, LIBSWO_PACKET_TYPE_DWT_PC_SAMPLE 
debg|decoder_swo.c:66->default_packet_handler(): Message 0, LIBSWO_PACKET_TYPE_OF 
debg|decoder_swo.c:66->default_packet_handler(): Message 0, LIBSWO_PACKET_TYPE_DWT_PC_SAMPLE 
debg|decoder_swo.c:66->default_packet_handler(): Message 0, LIBSWO_PACKET_TYPE_OF 
debg|decoder_swo.c:66->default_packet_handler(): Message 0, LIBSWO_PACKET_TYPE_DWT_PC_SAMPLE 
debg|decoder_swo.c:66->default_packet_handler(): Message 0, LIBSWO_PACKET_TYPE_OF 
debg|decoder_swo.c:66->default_packet_handler(): Message 0, LIBSWO_PACKET_TYPE_DWT_PC_SAMPLE 
debg|decoder_swo.c:66->default_packet_handler(): Message 0, LIBSWO_PACKET_TYPE_OF 
debg|decoder_swo.c:66->default_packet_handler(): Message 0, LIBSWO_PACKET_TYPE_DWT_PC_SAMPLE 
debg|decoder_swo.c:66->default_packet_handler(): Message 0, LIBSWO_PACKET_TYPE_OF 
debg|decoder_swo.c:66->default_packet_handler(): Message 0, LIBSWO_PACKET_TYPE_DWT_PC_SAMPLE 
debg|decoder_swo.c:66->default_packet_handler(): Message 0, LIBSWO_PACKET_TYPE_OF 
debg|decoder_swo.c:66->default_packet_handler(): Message 0, LIBSWO_PACKET_TYPE_DWT_PC_SAMPLE 
debg|decoder_swo.c:66->default_packet_handler(): Message 0, LIBSWO_PACKET_TYPE_OF 
debg|decoder_swo.c:66->default_packet_handler(): Message 0, LIBSWO_PACKET_TYPE_DWT_PC_SAMPLE 
debg|decoder_swo.c:66->default_packet_handler(): Message 0, LIBSWO_PACKET_TYPE_OF 
debg|decoder_swo.c:214->decoder_swo_data_in(): decoded 21
debg|decoder_swo.c:216->decoder_swo_data_in(): total size decoded 840
debg|decoder_swo.c:217->decoder_swo_data_in(): Total number of decoded packet 1082
debg|decoder_swo.c:239->decoder_swo_data_out(): Number of data received 840
debg|pkt_converter.c:594->pkt_convert(): Number of packet received 21
debg|decoder_swo.c:66->default_packet_handler(): Message 0, LIBSWO_PACKET_TYPE_DWT_PC_SAMPLE 
debg|decoder_swo.c:66->default_packet_handler(): Message 0, LIBSWO_PACKET_TYPE_OF 
debg|decoder_swo.c:66->defaulwarn|processing.c:49->processing_data_out_default(): No callback defined yet
t_packet_handler(): Message 0, LIBSWO_PACKET_TYPE_DWT_PC_SAMPLE 
debg|decoder_swo.c:66->default_packet_handler(): Message 0, LIBSWO_PACKET_TYPE_OF 
debg|decoder_swo.c:66->default_packet_handler(): Message 0, LIBSWO_PACKET_TYPE_DWT_PC_SAMPLE 
debg|decoder_swo.c:66->default_packet_handler(): Message 0, LIBSWO_PACKET_TYPE_OF 
debg|decoder_swo.c:66->default_packet_handler(): Message 0, LIBSWO_PACKET_TYPE_DWT_PC_SAMPLE 
debg|decoder_swo.c:66->default_packet_handler(): Message 0, LIBSWO_PACKET_TYPE_OF 
debg|decoder_swo.c:66->default_packet_handler(): Message 0, LIBSWO_PACKET_TYPE_DWT_PC_SAMPLE 
debg|decoder_swo.c:66->default_packet_handler(): Message 0, LIBSWO_PACKET_TYPE_OF 
debg|decoder_swo.c:66->default_packet_handler(): Message 0, LIBSWO_PACKET_TYPE_DWT_PC_SAMPLE 
debg|decoder_swo.c:66->default_packet_handler(): Message 0, LIBSWO_PACKET_TYPE_OF 
debg|decoder_swo.c:66->default_packet_handler(): Message 0, LIBSWO_PACKET_TYPE_DWT_PC_SAMPLE 
debg|decoder_swo.c:66->default_packet_handler(): Message 0, LIBSWO_PACKET_TYPE_OF 
debg|decoder_swo.c:66->default_packet_handler(): Message 0, LIBSWO_PACKET_TYPE_DWT_PC_SAMPLE 
debg|decoder_swo.c:66->default_packet_handler(): Message 0, LIBSWO_PACKET_TYPE_OF 
debg|decoder_swo.c:66->default_packet_handler(): Message 0, LIBSWO_PACKET_TYPE_DWT_PC_SAMPLE 
debg|decoder_swo.c:66->default_packet_handler(): Message 0, LIBSWO_PACKET_TYPE_OF 
debg|decoder_swo.c:66->default_packet_handler(): Message 0, LIBSWO_PACKET_TYPE_DWT_PC_SAMPLE 
debg|decoder_swo.c:66->default_packet_handler(): Message 0, LIBSWO_PACKET_TYPE_OF 
debg|decoder_swo.c:66->default_packet_handler(): Message 0, LIBSWO_PACKET_TYPE_DWT_PC_SAMPLE 
debg|decoder_swo.c:66->default_packet_handler(): Message 0, LIBSWO_PACKET_TYPE_OF 
debg|decoder_swo.c:66->default_packet_handler(): Message 0, LIBSWO_PACKET_TYPE_DWT_PC_SAMPLE 
debg|decoder_swo.c:66->default_packet_handler(): Message 0, LIBSWO_PACKET_TYPE_OF 
debg|decoder_swo.c:66->default_packet_handler(): Message 0, LIBSWO_PACKET_TYPE_DWT_PC_SAMPLE 
debg|decoder_swo.c:66->default_packet_handler(): Message 0, LIBSWO_PACKET_TYPE_OF 
debg|decoder_swo.c:66->default_packet_handler(): Message 0, LIBSWO_PACKET_TYPE_DWT_PC_SAMPLE 
debg|decoder_swo.c:66->default_packet_handler(): Message 0, LIBSWO_PACKET_TYPE_OF 
debg|decoder_swo.c:66->default_packet_handler(): Message 0, LIBSWO_PACKET_TYPE_DWT_PC_SAMPLE 
debg|decoder_swo.c:66->default_packet_handler(): Message 0, LIBSWO_PACKET_TYPE_OF 
debg|decoder_swo.c:66->default_packet_handler(): Message 0, LIBSWO_PACKET_TYPE_DWT_PC_SAMPLE 
debg|decoder_swo.c:66->default_packet_handler(): Message 0, LIBSWO_PACKET_TYPE_OF 
debg|decoder_swo.c:66->default_packet_handler(): Message 0, LIBSWO_PACKET_TYPE_DWT_PC_SAMPLE 
debg|decoder_swo.c:66->default_packet_handler(): Message 0, LIBSWO_PACKET_TYPE_OF 
debg|decoder_swo.c:66->default_packet_handler(): Message 0, LIBSWO_PACKET_TYPE_DWT_PC_SAMPLE 
debg|decoder_swo.c:66->default_packet_handler(): Message 0, LIBSWO_PACKET_TYPE_OF 
debg|decoder_swo.c:66->default_packet_handler(): Message 0, LIBSWO_PACKET_TYPE_DWT_PC_SAMPLE 
debg|decoder_swo.c:66->default_packet_handler(): Message 0, LIBSWO_PACKET_TYPE_OF 
debg|decoder_swo.c:66->default_packet_handler(): Message 0, LIBSWO_PACKET_TYPE_DWT_PC_SAMPLE 
debg|decoder_swo.c:66->default_packet_handler(): Message 0, LIBSWO_PACKET_TYPE_OF 
debg|decoder_swo.c:66->default_packet_handler(): Message 0, LIBSWO_PACKET_TYPE_DWT_PC_SAMPLE 
debg|decoder_swo.c:66->default_packet_handler(): Message 0, LIBSWO_PACKET_TYPE_OF 
debg|decoder_swo.c:214->decoder_swo_data_in(): decoded 21
debg|decoder_swo.c:216->decoder_swo_data_in(): total size decoded 840
debg|decoder_swo.c:217->decoder_swo_data_in(): Total number of decoded packet 1103
debg|decoder_swo.c:239->decoder_swo_data_out(): Number of data received 840
debg|pkt_converter.c:594->pkt_convert(): Number of packet received 21
debg|decoder_swo.c:66->default_packet_handler(): Message 0, LIBSWO_PACKET_TYPE_DWT_PC_SAMPLE 
debg|decoder_swo.c:66->default_packet_handler(): Message 0, LIBSWO_PACKET_TYPE_OF 
debg|decoder_swo.c:66->default_packet_handler(): Mewarn|processing.c:49->processing_data_out_default(): No callback defined yet
ssage 0, LIBSWO_PACKET_TYPE_DWT_PC_SAMPLE 
debg|decoder_swo.c:66->default_packet_handler(): Message 0, LIBSWO_PACKET_TYPE_OF 
debg|decoder_swo.c:66->default_packet_handler(): Message 0, LIBSWO_PACKET_TYPE_DWT_PC_SAMPLE 
debg|decoder_swo.c:66->default_packet_handler(): Message 0, LIBSWO_PACKET_TYPE_OF 
debg|decoder_swo.c:66->default_packet_handler(): Message 0, LIBSWO_PACKET_TYPE_DWT_PC_SAMPLE 
debg|decoder_swo.c:66->default_packet_handler(): Message 0, LIBSWO_PACKET_TYPE_OF 
debg|decoder_swo.c:66->default_packet_handler(): Message 0, LIBSWO_PACKET_TYPE_DWT_PC_SAMPLE 
debg|decoder_swo.c:66->default_packet_handler(): Message 0, LIBSWO_PACKET_TYPE_OF 
debg|decoder_swo.c:66->default_packet_handler(): Message 0, LIBSWO_PACKET_TYPE_DWT_PC_SAMPLE 
debg|decoder_swo.c:66->default_packet_handler(): Message 0, LIBSWO_PACKET_TYPE_OF 
debg|decoder_swo.c:66->default_packet_handler(): Message 0, LIBSWO_PACKET_TYPE_DWT_PC_SAMPLE 
debg|decoder_swo.c:66->default_packet_handler(): Message 0, LIBSWO_PACKET_TYPE_OF 
debg|decoder_swo.c:66->default_packet_handler(): Message 0, LIBSWO_PACKET_TYPE_DWT_PC_SAMPLE 
debg|decoder_swo.c:66->default_packet_handler(): Message 0, LIBSWO_PACKET_TYPE_OF 
debg|decoder_swo.c:66->default_packet_handler(): Message 0, LIBSWO_PACKET_TYPE_DWT_PC_SAMPLE 
debg|decoder_swo.c:66->default_packet_handler(): Message 0, LIBSWO_PACKET_TYPE_OF 
debg|decoder_swo.c:66->default_packet_handler(): Message 0, LIBSWO_PACKET_TYPE_DWT_PC_SAMPLE 
debg|decoder_swo.c:66->default_packet_handler(): Message 0, LIBSWO_PACKET_TYPE_OF 
debg|decoder_swo.c:66->default_packet_handler(): Message 0, LIBSWO_PACKET_TYPE_DWT_PC_SAMPLE 
debg|decoder_swo.c:66->default_packet_handler(): Message 0, LIBSWO_PACKET_TYPE_OF 
debg|decoder_swo.c:66->default_packet_handler(): Message 0, LIBSWO_PACKET_TYPE_DWT_PC_SAMPLE 
debg|decoder_swo.c:66->default_packet_handler(): Message 0, LIBSWO_PACKET_TYPE_OF 
debg|decoder_swo.c:66->default_packet_handler(): Message 0, LIBSWO_PACKET_TYPE_DWT_PC_SAMPLE 
debg|decoder_swo.c:66->default_packet_handler(): Message 0, LIBSWO_PACKET_TYPE_OF 
debg|decoder_swo.c:66->default_packet_handler(): Message 0, LIBSWO_PACKET_TYPE_DWT_PC_SAMPLE 
debg|decoder_swo.c:66->default_packet_handler(): Message 0, LIBSWO_PACKET_TYPE_OF 
debg|decoder_swo.c:66->default_packet_handler(): Message 0, LIBSWO_PACKET_TYPE_DWT_PC_SAMPLE 
debg|decoder_swo.c:66->default_packet_handler(): Message 0, LIBSWO_PACKET_TYPE_OF 
debg|decoder_swo.c:66->default_packet_handler(): Message 0, LIBSWO_PACKET_TYPE_DWT_PC_SAMPLE 
debg|decoder_swo.c:66->default_packet_handler(): Message 0, LIBSWO_PACKET_TYPE_OF 
debg|decoder_swo.c:66->default_packet_handler(): Message 0, LIBSWO_PACKET_TYPE_DWT_PC_SAMPLE 
debg|decoder_swo.c:66->default_packet_handler(): Message 0, LIBSWO_PACKET_TYPE_OF 
debg|decoder_swo.c:66->default_packet_handler(): Message 0, LIBSWO_PACKET_TYPE_DWT_PC_SAMPLE 
debg|decoder_swo.c:66->default_packet_handler(): Message 0, LIBSWO_PACKET_TYPE_OF 
debg|decoder_swo.c:66->default_packet_handler(): Message 0, LIBSWO_PACKET_TYPE_DWT_PC_SAMPLE 
debg|decoder_swo.c:66->default_packet_handler(): Message 0, LIBSWO_PACKET_TYPE_OF 
debg|decoder_swo.c:66->default_packet_handler(): Message 0, LIBSWO_PACKET_TYPE_DWT_PC_SAMPLE 
debg|decoder_swo.c:66->default_packet_handler(): Message 0, LIBSWO_PACKET_TYPE_OF 
debg|decoder_swo.c:66->default_packet_handler(): Message 0, LIBSWO_PACKET_TYPE_DWT_PC_SAMPLE 
debg|decoder_swo.c:66->default_packet_handler(): Message 0, LIBSWO_PACKET_TYPE_OF 
debg|decoder_swo.c:66->default_packet_handler(): Message 0, LIBSWO_PACKET_TYPE_DWT_PC_SAMPLE 
debg|decoder_swo.c:214->decoder_swo_data_in(): decoded 22
debg|decoder_swo.c:216->decoder_swo_data_in(): total size decoded 880
debg|decoder_swo.c:217->decoder_swo_data_in(): Total number of decoded packet 1125
debg|decoder_swo.c:239->decoder_swo_data_out(): Number of data received 880
debg|pkt_converter.c:594->pkt_convert(): Number of packet received 22
debg|decoder_swo.c:66->default_packet_handler(): Message 0, LIBSWO_PACKET_TYPE_OF 
debg|decoder_swo.c:66->default_packet_handler(): Message 0, LIBSWO_PACKETwarn|processing.c:49->processing_data_out_default(): No callback defined yet
_TYPE_DWT_PC_SAMPLE 
debg|decoder_swo.c:66->default_packet_handler(): Message 0, LIBSWO_PACKET_TYPE_OF 
debg|decoder_swo.c:66->default_packet_handler(): Message 0, LIBSWO_PACKET_TYPE_DWT_PC_SAMPLE 
debg|decoder_swo.c:66->default_packet_handler(): Message 0, LIBSWO_PACKET_TYPE_OF 
debg|decoder_swo.c:66->default_packet_handler(): Message 0, LIBSWO_PACKET_TYPE_DWT_PC_SAMPLE 
debg|decoder_swo.c:66->default_packet_handler(): Message 0, LIBSWO_PACKET_TYPE_OF 
debg|decoder_swo.c:66->default_packet_handler(): Message 0, LIBSWO_PACKET_TYPE_DWT_PC_SAMPLE 
debg|decoder_swo.c:66->default_packet_handler(): Message 0, LIBSWO_PACKET_TYPE_OF 
debg|decoder_swo.c:66->default_packet_handler(): Message 0, LIBSWO_PACKET_TYPE_DWT_PC_SAMPLE 
debg|decoder_swo.c:66->default_packet_handler(): Message 0, LIBSWO_PACKET_TYPE_OF 
debg|decoder_swo.c:66->default_packet_handler(): Message 0, LIBSWO_PACKET_TYPE_DWT_PC_SAMPLE 
debg|decoder_swo.c:66->default_packet_handler(): Message 0, LIBSWO_PACKET_TYPE_OF 
debg|decoder_swo.c:66->default_packet_handler(): Message 0, LIBSWO_PACKET_TYPE_DWT_PC_SAMPLE 
debg|decoder_swo.c:66->default_packet_handler(): Message 0, LIBSWO_PACKET_TYPE_OF 
debg|decoder_swo.c:66->default_packet_handler(): Message 0, LIBSWO_PACKET_TYPE_DWT_PC_SAMPLE 
debg|decoder_swo.c:66->default_packet_handler(): Message 0, LIBSWO_PACKET_TYPE_OF 
debg|decoder_swo.c:66->default_packet_handler(): Message 0, LIBSWO_PACKET_TYPE_DWT_PC_SAMPLE 
debg|decoder_swo.c:66->default_packet_handler(): Message 0, LIBSWO_PACKET_TYPE_OF 
debg|decoder_swo.c:66->default_packet_handler(): Message 0, LIBSWO_PACKET_TYPE_DWT_PC_SAMPLE 
debg|decoder_swo.c:66->default_packet_handler(): Message 0, LIBSWO_PACKET_TYPE_OF 
debg|decoder_swo.c:66->default_packet_handler(): Message 0, LIBSWO_PACKET_TYPE_DWT_PC_SAMPLE 
debg|decoder_swo.c:66->default_packet_handler(): Message 0, LIBSWO_PACKET_TYPE_OF 
debg|decoder_swo.c:66->default_packet_handler(): Message 0, LIBSWO_PACKET_TYPE_DWT_PC_SAMPLE 
debg|decoder_swo.c:66->default_packet_handler(): Message 0, LIBSWO_PACKET_TYPE_OF 
debg|decoder_swo.c:66->default_packet_handler(): Message 0, LIBSWO_PACKET_TYPE_DWT_PC_SAMPLE 
debg|decoder_swo.c:66->default_packet_handler(): Message 0, LIBSWO_PACKET_TYPE_OF 
debg|decoder_swo.c:66->default_packet_handler(): Message 0, LIBSWO_PACKET_TYPE_DWT_PC_SAMPLE 
debg|decoder_swo.c:66->default_packet_handler(): Message 0, LIBSWO_PACKET_TYPE_OF 
debg|decoder_swo.c:66->default_packet_handler(): Message 0, LIBSWO_PACKET_TYPE_DWT_PC_SAMPLE 
debg|decoder_swo.c:66->default_packet_handler(): Message 0, LIBSWO_PACKET_TYPE_OF 
debg|decoder_swo.c:66->default_packet_handler(): Message 0, LIBSWO_PACKET_TYPE_DWT_PC_SAMPLE 
debg|decoder_swo.c:66->default_packet_handler(): Message 0, LIBSWO_PACKET_TYPE_OF 
debg|decoder_swo.c:66->default_packet_handler(): Message 0, LIBSWO_PACKET_TYPE_DWT_PC_SAMPLE 
debg|decoder_swo.c:66->default_packet_handler(): Message 0, LIBSWO_PACKET_TYPE_OF 
debg|decoder_swo.c:66->default_packet_handler(): Message 0, LIBSWO_PACKET_TYPE_DWT_PC_SAMPLE 
debg|decoder_swo.c:66->default_packet_handler(): Message 0, LIBSWO_PACKET_TYPE_OF 
debg|decoder_swo.c:66->default_packet_handler(): Message 0, LIBSWO_PACKET_TYPE_DWT_PC_SAMPLE 
debg|decoder_swo.c:66->default_packet_handler(): Message 0, LIBSWO_PACKET_TYPE_OF 
debg|decoder_swo.c:66->default_packet_handler(): Message 0, LIBSWO_PACKET_TYPE_DWT_PC_SAMPLE 
debg|decoder_swo.c:66->default_packet_handler(): Message 0, LIBSWO_PACKET_TYPE_OF 
debg|decoder_swo.c:66->default_packet_handler(): Message 0, LIBSWO_PACKET_TYPE_DWT_PC_SAMPLE 
debg|decoder_swo.c:66->default_packet_handler(): Message 0, LIBSWO_PACKET_TYPE_OF 
debg|decoder_swo.c:214->decoder_swo_data_in(): decoded 21
debg|decoder_swo.c:216->decoder_swo_data_in(): total size decoded 840
debg|decoder_swo.c:217->decoder_swo_data_in(): Total number of decoded packet 1146
debg|decoder_swo.c:239->decoder_swo_data_out(): Number of data received 840
debg|pkt_converter.c:594->pkt_convert(): Number of packet received 21
debg|decoder_swo.c:66->default_packet_handler(): Message 0, LIBSWO_PACKET_TYPE_DWT_PC_SAMPLE 
dwarn|processing.c:49->processing_data_out_default(): No callback defined yet
ebg|decoder_swo.c:66->default_packet_handler(): Message 0, LIBSWO_PACKET_TYPE_OF 
debg|decoder_swo.c:66->default_packet_handler(): Message 0, LIBSWO_PACKET_TYPE_DWT_PC_SAMPLE 
debg|decoder_swo.c:66->default_packet_handler(): Message 0, LIBSWO_PACKET_TYPE_OF 
debg|decoder_swo.c:66->default_packet_handler(): Message 0, LIBSWO_PACKET_TYPE_DWT_PC_SAMPLE 
debg|decoder_swo.c:66->default_packet_handler(): Message 0, LIBSWO_PACKET_TYPE_OF 
debg|decoder_swo.c:66->default_packet_handler(): Message 0, LIBSWO_PACKET_TYPE_DWT_PC_SAMPLE 
debg|decoder_swo.c:66->default_packet_handler(): Message 0, LIBSWO_PACKET_TYPE_OF 
debg|decoder_swo.c:66->default_packet_handler(): Message 0, LIBSWO_PACKET_TYPE_DWT_PC_SAMPLE 
debg|decoder_swo.c:66->default_packet_handler(): Message 0, LIBSWO_PACKET_TYPE_OF 
debg|decoder_swo.c:66->default_packet_handler(): Message 0, LIBSWO_PACKET_TYPE_DWT_PC_SAMPLE 
debg|decoder_swo.c:66->default_packet_handler(): Message 0, LIBSWO_PACKET_TYPE_OF 
debg|decoder_swo.c:66->default_packet_handler(): Message 0, LIBSWO_PACKET_TYPE_DWT_PC_SAMPLE 
debg|decoder_swo.c:66->default_packet_handler(): Message 0, LIBSWO_PACKET_TYPE_OF 
debg|decoder_swo.c:66->default_packet_handler(): Message 0, LIBSWO_PACKET_TYPE_DWT_PC_SAMPLE 
debg|decoder_swo.c:66->default_packet_handler(): Message 0, LIBSWO_PACKET_TYPE_OF 
debg|decoder_swo.c:66->default_packet_handler(): Message 0, LIBSWO_PACKET_TYPE_DWT_PC_SAMPLE 
debg|decoder_swo.c:66->default_packet_handler(): Message 0, LIBSWO_PACKET_TYPE_OF 
debg|decoder_swo.c:66->default_packet_handler(): Message 0, LIBSWO_PACKET_TYPE_DWT_PC_SAMPLE 
debg|decoder_swo.c:66->default_packet_handler(): Message 0, LIBSWO_PACKET_TYPE_OF 
debg|decoder_swo.c:66->default_packet_handler(): Message 0, LIBSWO_PACKET_TYPE_DWT_PC_SAMPLE 
debg|decoder_swo.c:66->default_packet_handler(): Message 0, LIBSWO_PACKET_TYPE_OF 
debg|decoder_swo.c:66->default_packet_handler(): Message 0, LIBSWO_PACKET_TYPE_DWT_PC_SAMPLE 
debg|decoder_swo.c:66->default_packet_handler(): Message 0, LIBSWO_PACKET_TYPE_OF 
debg|decoder_swo.c:66->default_packet_handler(): Message 0, LIBSWO_PACKET_TYPE_DWT_PC_SAMPLE 
debg|decoder_swo.c:66->default_packet_handler(): Message 0, LIBSWO_PACKET_TYPE_OF 
debg|decoder_swo.c:66->default_packet_handler(): Message 0, LIBSWO_PACKET_TYPE_DWT_PC_SAMPLE 
debg|decoder_swo.c:66->default_packet_handler(): Message 0, LIBSWO_PACKET_TYPE_OF 
debg|decoder_swo.c:66->default_packet_handler(): Message 0, LIBSWO_PACKET_TYPE_DWT_PC_SAMPLE 
debg|decoder_swo.c:66->default_packet_handler(): Message 0, LIBSWO_PACKET_TYPE_OF 
debg|decoder_swo.c:66->default_packet_handler(): Message 0, LIBSWO_PACKET_TYPE_DWT_PC_SAMPLE 
debg|decoder_swo.c:66->default_packet_handler(): Message 0, LIBSWO_PACKET_TYPE_OF 
debg|decoder_swo.c:66->default_packet_handler(): Message 0, LIBSWO_PACKET_TYPE_DWT_PC_SAMPLE 
debg|decoder_swo.c:66->default_packet_handler(): Message 0, LIBSWO_PACKET_TYPE_OF 
debg|decoder_swo.c:66->default_packet_handler(): Message 0, LIBSWO_PACKET_TYPE_DWT_PC_SAMPLE 
debg|decoder_swo.c:66->default_packet_handler(): Message 0, LIBSWO_PACKET_TYPE_OF 
debg|decoder_swo.c:66->default_packet_handler(): Message 0, LIBSWO_PACKET_TYPE_DWT_PC_SAMPLE 
debg|decoder_swo.c:66->default_packet_handler(): Message 0, LIBSWO_PACKET_TYPE_OF 
debg|decoder_swo.c:66->default_packet_handler(): Message 0, LIBSWO_PACKET_TYPE_DWT_PC_SAMPLE 
debg|decoder_swo.c:66->default_packet_handler(): Message 0, LIBSWO_PACKET_TYPE_OF 
debg|decoder_swo.c:66->default_packet_handler(): Message 0, LIBSWO_PACKET_TYPE_DWT_PC_SAMPLE 
debg|decoder_swo.c:66->default_packet_handler(): Message 0, LIBSWO_PACKET_TYPE_OF 
debg|decoder_swo.c:214->decoder_swo_data_in(): decoded 21
debg|decoder_swo.c:216->decoder_swo_data_in(): total size decoded 840
debg|decoder_swo.c:217->decoder_swo_data_in(): Total number of decoded packet 1167
debg|decoder_swo.c:239->decoder_swo_data_out(): Number of data received 840
debg|pkt_converter.c:594->pkt_convert(): Number of packet received 21
debg|decoder_swo.c:66->default_packet_handler(): Message 0, LIBSWO_PACKET_TYPE_DWT_PC_SAMPLE 
debg|decoder_swo.c:66->warn|processing.c:49->processing_data_out_default(): No callback defined yet
default_packet_handler(): Message 0, LIBSWO_PACKET_TYPE_OF 
debg|decoder_swo.c:66->default_packet_handler(): Message 0, LIBSWO_PACKET_TYPE_DWT_PC_SAMPLE 
debg|decoder_swo.c:66->default_packet_handler(): Message 0, LIBSWO_PACKET_TYPE_OF 
debg|decoder_swo.c:66->default_packet_handler(): Message 0, LIBSWO_PACKET_TYPE_DWT_PC_SAMPLE 
debg|decoder_swo.c:66->default_packet_handler(): Message 0, LIBSWO_PACKET_TYPE_OF 
debg|decoder_swo.c:66->default_packet_handler(): Message 0, LIBSWO_PACKET_TYPE_DWT_PC_SAMPLE 
debg|decoder_swo.c:66->default_packet_handler(): Message 0, LIBSWO_PACKET_TYPE_OF 
debg|decoder_swo.c:66->default_packet_handler(): Message 0, LIBSWO_PACKET_TYPE_DWT_PC_SAMPLE 
debg|decoder_swo.c:66->default_packet_handler(): Message 0, LIBSWO_PACKET_TYPE_OF 
debg|decoder_swo.c:66->default_packet_handler(): Message 0, LIBSWO_PACKET_TYPE_DWT_PC_SAMPLE 
debg|decoder_swo.c:66->default_packet_handler(): Message 0, LIBSWO_PACKET_TYPE_OF 
debg|decoder_swo.c:66->default_packet_handler(): Message 0, LIBSWO_PACKET_TYPE_DWT_PC_SAMPLE 
debg|decoder_swo.c:66->default_packet_handler(): Message 0, LIBSWO_PACKET_TYPE_OF 
debg|decoder_swo.c:66->default_packet_handler(): Message 0, LIBSWO_PACKET_TYPE_DWT_PC_SAMPLE 
debg|decoder_swo.c:66->default_packet_handler(): Message 0, LIBSWO_PACKET_TYPE_OF 
debg|decoder_swo.c:66->default_packet_handler(): Message 0, LIBSWO_PACKET_TYPE_DWT_PC_SAMPLE 
debg|decoder_swo.c:66->default_packet_handler(): Message 0, LIBSWO_PACKET_TYPE_OF 
debg|decoder_swo.c:66->default_packet_handler(): Message 0, LIBSWO_PACKET_TYPE_DWT_PC_SAMPLE 
debg|decoder_swo.c:66->default_packet_handler(): Message 0, LIBSWO_PACKET_TYPE_OF 
debg|decoder_swo.c:66->default_packet_handler(): Message 0, LIBSWO_PACKET_TYPE_DWT_PC_SAMPLE 
debg|decoder_swo.c:66->default_packet_handler(): Message 0, LIBSWO_PACKET_TYPE_OF 
debg|decoder_swo.c:66->default_packet_handler(): Message 0, LIBSWO_PACKET_TYPE_DWT_PC_SAMPLE 
debg|decoder_swo.c:66->default_packet_handler(): Message 0, LIBSWO_PACKET_TYPE_OF 
debg|decoder_swo.c:66->default_packet_handler(): Message 0, LIBSWO_PACKET_TYPE_DWT_PC_SAMPLE 
debg|decoder_swo.c:66->default_packet_handler(): Message 0, LIBSWO_PACKET_TYPE_OF 
debg|decoder_swo.c:66->default_packet_handler(): Message 0, LIBSWO_PACKET_TYPE_DWT_PC_SAMPLE 
debg|decoder_swo.c:66->default_packet_handler(): Message 0, LIBSWO_PACKET_TYPE_OF 
debg|decoder_swo.c:66->default_packet_handler(): Message 0, LIBSWO_PACKET_TYPE_DWT_PC_SAMPLE 
debg|decoder_swo.c:66->default_packet_handler(): Message 0, LIBSWO_PACKET_TYPE_OF 
debg|decoder_swo.c:66->default_packet_handler(): Message 0, LIBSWO_PACKET_TYPE_DWT_PC_SAMPLE 
debg|decoder_swo.c:66->default_packet_handler(): Message 0, LIBSWO_PACKET_TYPE_OF 
debg|decoder_swo.c:66->default_packet_handler(): Message 0, LIBSWO_PACKET_TYPE_DWT_PC_SAMPLE 
debg|decoder_swo.c:66->default_packet_handler(): Message 0, LIBSWO_PACKET_TYPE_OF 
debg|decoder_swo.c:66->default_packet_handler(): Message 0, LIBSWO_PACKET_TYPE_DWT_PC_SAMPLE 
debg|decoder_swo.c:66->default_packet_handler(): Message 0, LIBSWO_PACKET_TYPE_OF 
debg|decoder_swo.c:66->default_packet_handler(): Message 0, LIBSWO_PACKET_TYPE_DWT_PC_SAMPLE 
debg|decoder_swo.c:66->default_packet_handler(): Message 0, LIBSWO_PACKET_TYPE_OF 
debg|decoder_swo.c:66->default_packet_handler(): Message 0, LIBSWO_PACKET_TYPE_DWT_PC_SAMPLE 
debg|decoder_swo.c:66->default_packet_handler(): Message 0, LIBSWO_PACKET_TYPE_OF 
debg|decoder_swo.c:66->default_packet_handler(): Message 0, LIBSWO_PACKET_TYPE_DWT_PC_SAMPLE 
debg|decoder_swo.c:66->default_packet_handler(): Message 0, LIBSWO_PACKET_TYPE_OF 
debg|decoder_swo.c:66->default_packet_handler(): Message 0, LIBSWO_PACKET_TYPE_DWT_PC_SAMPLE 
debg|decoder_swo.c:214->decoder_swo_data_in(): decoded 22
debg|decoder_swo.c:216->decoder_swo_data_in(): total size decoded 880
debg|decoder_swo.c:217->decoder_swo_data_in(): Total number of decoded packet 1189
debg|decoder_swo.c:239->decoder_swo_data_out(): Number of data received 880
debg|pkt_converter.c:594->pkt_convert(): Number of packet received 22
debg|decoder_swo.c:66->default_packet_handler(): Message 0, LIBSWO_PACKET_TYPE_OF 
debg|decoder_swo.c:66->default_packet_handler(): Message 0, LIBSWO_PACKET_TYPE_DWT_PC_SAMPLE 
debg|decoder_swo.c:66->default_packet_handler(): Message 0, LIBSWO_PACKET_TYPE_OF 
debg|decoder_swo.c:66->default_packet_handler(): Message 0, LIBSWO_PACKET_TYPE_DWT_PC_SAMPLE 
debg|decoder_swo.c:66->default_packet_handler(): Message 0, LIBSWO_PACKET_TYPE_OF 
debg|decoder_swo.c:66->default_packet_handler(): Message 0, LIBSWO_PACKET_TYPE_DWT_PC_SAMPLE 
debg|decoder_swo.c:66->default_packet_handler(): Message 0, LIBSWO_PACKET_TYPE_OF 
debg|decoder_swo.c:66->default_packet_handler(): Message 0, LIBSWO_PACKET_TYPE_DWT_PC_SAMPLE 
debg|decoder_swo.c:66->default_packet_handler(): Message 0, LIBSWO_PACKET_TYPE_OF 
debg|decoder_swo.c:66->default_packet_handler(): Message 0, LIBSWO_PACKET_TYPE_DWT_PC_SAMPLE 
debg|decoder_swo.c:66->default_packet_handler(): Message 0, LIBSWO_PACKET_TYPE_OF 
debg|decoder_swo.c:66->default_packet_handler(): Message 0, LIBSWO_PACKET_TYPE_DWT_PC_SAMPLE 
debg|decoder_swo.c:66->default_packet_handler(): Message 0, LIBSWO_PACKET_TYPE_OF 
debg|decoder_swo.c:66->default_packet_handler(): Message 0, LIBSWO_PACKET_TYPE_DWT_PC_SAMPLE 
debg|decoder_swo.c:66->default_packet_handler(): Message 0, LIBSWO_PACKET_TYPE_OF 
debg|decoder_swo.c:66->default_packet_handler(): Message 0, LIBSWO_PACKET_TYPE_DWT_PC_SAMPLE 
debg|decoder_swo.c:66->default_packet_handler(): Message 0, LIBSWO_PACKET_TYPE_OF 
debg|decoder_swo.c:66->default_packet_handler(): Message 0, LIBSWO_PACKET_TYPE_DWT_PC_SAMPLE 
debg|decoder_swo.c:66->default_packet_handler(): Message 0, LIBSWO_PACKET_TYPE_OF 
debg|decoder_swo.c:66->default_packet_handler(): Message 0, LIBSWO_PACKET_TYPE_DWT_PC_SAMPLE 
debg|decoder_swo.c:66->default_packet_handler(): Message 0, LIBSWO_PACKET_TYPE_OF 
debg|decoder_swo.c:66->default_packet_handler(): Message 0, LIBSWO_PACKET_TYPE_DWT_PC_SAMPLE 
debg|decoder_swo.c:66->default_packet_handler(): Message 0, LIBSWO_PACKET_TYPE_OF 
debg|decoder_swo.c:66->default_packet_handler(): Message 0, LIBSWO_PACKET_TYPE_DWT_PC_SAMPLE 
debg|decoder_swo.c:66->default_packet_handler(): Message 0, LIBSWO_PACKET_TYPE_OF 
debg|decoder_swo.c:66->default_packet_handler(): Message 0, LIBSWO_PACKET_TYPE_DWT_PC_SAMPLE 
debg|decoder_swo.c:66->default_packet_handler(): Message 0, LIBSWO_PACKET_TYPE_OF 
debg|decoder_swo.c:66->default_packet_handler(): Message 0, LIBSWO_PACKET_TYPE_DWT_PC_SAMPLE 
debg|decoder_swo.c:66->default_packet_handler(): Message 0, LIBSWO_PACKET_TYPE_OF 
debg|decoder_swo.c:66->default_packet_handler(): Message 0, LIBSWO_PACKET_TYPE_DWT_PC_SAMPLE 
debg|decoder_swo.c:66->default_packet_handler(): Message 0, LIBSWO_PACKET_TYPE_OF 
debg|decoder_swo.c:66->default_packet_handler(): Message 0, LIBSWO_PACKET_TYPE_DWT_PC_SAMPLE 
debg|decoder_swo.c:66->default_packet_handler(): Message 0, LIBSWO_PACKET_TYPE_OF 
debg|decoder_swo.c:66->default_packet_handler(): Message 0, LIBSWO_PACKET_TYPE_DWT_PC_SAMPLE 
debg|decoder_swo.c:66->default_packet_handler(): Message 0, LIBSWO_PACKET_TYPE_OF 
debg|decoder_swo.c:66->default_packet_handler(): Message 0, LIBSWO_PACKET_TYPE_DWT_PC_SAMPLE 
debg|decoder_swo.c:66->default_packet_handler(): Message 0, LIBSWO_PACKET_TYPE_OF 
debg|decoder_swo.c:66->default_packet_handler(): Message 0, LIBSWO_PACKET_TYPE_DWT_PC_SAMPLE 
debg|decoder_swo.c:66->default_packet_handler(): Message 0, LIBSWO_PACKET_TYPE_OF 
debg|decoder_swo.c:66->default_packet_handler(): Message 0, LIBSWO_PACKET_TYPE_DWT_PC_SAMPLE 
debg|decoder_swo.c:66->default_packet_handler(): Message 0, LIBSWO_PACKET_TYPE_OF 
debg|decoder_swo.c:66->default_packet_handler(): Message 0, LIBSWO_PACKET_TYPE_DWT_PC_SAMPLE 
debg|decoder_swo.c:66->default_packet_handler(): Message 0, LIBSWO_PACKET_TYPE_OF 
debg|decoder_swo.c:214->decoder_swo_data_in(): decoded 21
debg|decoder_swo.c:216->decoder_swo_data_in(): total size decoded 840
debg|decoder_swo.c:217->decoder_swo_data_in(): Total number of decoded packet 1210
debg|decoder_swo.c:239->decoder_swo_data_out(): Number of data received 840
debg|pkt_converter.c:594->pkt_convert(): Number of pacwarn|processing.c:49->processing_data_out_default(): No callback defined yet
warn|processing.c:49->processing_data_out_default(): No callback defined yet
ket received 21
debg|decoder_swo.c:66->default_packet_handler(): Message 0, LIBSWO_PACKET_TYPE_DWT_PC_SAMPLE 
debg|decoder_swo.c:66->default_packet_handler(): Message 0, LIBSWO_PACKET_TYPE_OF 
debg|decoder_swo.c:66->default_packet_handler(): Message 0, LIBSWO_PACKET_TYPE_DWT_PC_SAMPLE 
debg|decoder_swo.c:66->default_packet_handler(): Message 0, LIBSWO_PACKET_TYPE_OF 
debg|decoder_swo.c:66->default_packet_handler(): Message 0, LIBSWO_PACKET_TYPE_DWT_PC_SAMPLE 
debg|decoder_swo.c:66->default_packet_handler(): Message 0, LIBSWO_PACKET_TYPE_OF 
debg|decoder_swo.c:66->default_packet_handler(): Message 0, LIBSWO_PACKET_TYPE_DWT_PC_SAMPLE 
debg|decoder_swo.c:66->default_packet_handler(): Message 0, LIBSWO_PACKET_TYPE_OF 
debg|decoder_swo.c:66->default_packet_handler(): Message 0, LIBSWO_PACKET_TYPE_DWT_PC_SAMPLE 
debg|decoder_swo.c:66->default_packet_handler(): Message 0, LIBSWO_PACKET_TYPE_OF 
debg|decoder_swo.c:66->default_packet_handler(): Message 0, LIBSWO_PACKET_TYPE_DWT_PC_SAMPLE 
debg|decoder_swo.c:66->default_packet_handler(): Message 0, LIBSWO_PACKET_TYPE_OF 
debg|decoder_swo.c:66->default_packet_handler(): Message 0, LIBSWO_PACKET_TYPE_DWT_PC_SAMPLE 
debg|decoder_swo.c:66->default_packet_handler(): Message 0, LIBSWO_PACKET_TYPE_OF 
debg|decoder_swo.c:66->default_packet_handler(): Message 0, LIBSWO_PACKET_TYPE_DWT_PC_SAMPLE 
debg|decoder_swo.c:66->default_packet_handler(): Message 0, LIBSWO_PACKET_TYPE_OF 
debg|decoder_swo.c:66->default_packet_handler(): Message 0, LIBSWO_PACKET_TYPE_DWT_PC_SAMPLE 
debg|decoder_swo.c:66->default_packet_handler(): Message 0, LIBSWO_PACKET_TYPE_OF 
debg|decoder_swo.c:66->default_packet_handler(): Message 0, LIBSWO_PACKET_TYPE_DWT_PC_SAMPLE 
debg|decoder_swo.c:66->default_packet_handler(): Message 0, LIBSWO_PACKET_TYPE_OF 
debg|decoder_swo.c:66->default_packet_handler(): Message 0, LIBSWO_PACKET_TYPE_DWT_PC_SAMPLE 
debg|decoder_swo.c:66->default_packet_handler(): Message 0, LIBSWO_PACKET_TYPE_OF 
debg|decoder_swo.c:66->default_packet_handler(): Message 0, LIBSWO_PACKET_TYPE_DWT_PC_SAMPLE 
debg|decoder_swo.c:66->default_packet_handler(): Message 0, LIBSWO_PACKET_TYPE_OF 
debg|decoder_swo.c:66->default_packet_handler(): Message 0, LIBSWO_PACKET_TYPE_DWT_PC_SAMPLE 
debg|decoder_swo.c:66->default_packet_handler(): Message 0, LIBSWO_PACKET_TYPE_OF 
debg|decoder_swo.c:66->default_packet_handler(): Message 0, LIBSWO_PACKET_TYPE_DWT_PC_SAMPLE 
debg|decoder_swo.c:66->default_packet_handler(): Message 0, LIBSWO_PACKET_TYPE_OF 
debg|decoder_swo.c:66->default_packet_handler(): Message 0, LIBSWO_PACKET_TYPE_DWT_PC_SAMPLE 
debg|decoder_swo.c:66->default_packet_handler(): Message 0, LIBSWO_PACKET_TYPE_OF 
debg|decoder_swo.c:66->default_packet_handler(): Message 0, LIBSWO_PACKET_TYPE_DWT_PC_SAMPLE 
debg|decoder_swo.c:66->default_packet_handler(): Message 0, LIBSWO_PACKET_TYPE_OF 
debg|decoder_swo.c:66->default_packet_handler(): Message 0, LIBSWO_PACKET_TYPE_DWT_PC_SAMPLE 
debg|decoder_swo.c:66->default_packet_handler(): Message 0, LIBSWO_PACKET_TYPE_OF 
debg|decoder_swo.c:66->default_packet_handler(): Message 0, LIBSWO_PACKET_TYPE_DWT_PC_SAMPLE 
debg|decoder_swo.c:66->default_packet_handler(): Message 0, LIBSWO_PACKET_TYPE_OF 
debg|decoder_swo.c:66->default_packet_handler(): Message 0, LIBSWO_PACKET_TYPE_DWT_PC_SAMPLE 
debg|decoder_swo.c:66->default_packet_handler(): Message 0, LIBSWO_PACKET_TYPE_OF 
debg|decoder_swo.c:66->default_packet_handler(): Message 0, LIBSWO_PACKET_TYPE_DWT_PC_SAMPLE 
debg|decoder_swo.c:66->default_packet_handler(): Message 0, LIBSWO_PACKET_TYPE_OF 
debg|decoder_swo.c:66->default_packet_handler(): Message 0, LIBSWO_PACKET_TYPE_DWT_PC_SAMPLE 
debg|decoder_swo.c:66->default_packet_handler(): Message 0, LIBSWO_PACKET_TYPE_OF 
debg|decoder_swo.c:214->decoder_swo_data_in(): decoded 21
debg|decoder_swo.c:216->decoder_swo_data_in(): total size decoded 840
debg|decoder_swo.c:217->decoder_swo_data_in(): Total number of decoded packet 1231
debg|decoder_swo.c:239->decoder_swo_data_out(): Number of data received 840
debg|pkt_converter.c:594->pkt_convert(): Number of packet received 21
debg|decoder_swo.c:66->default_packet_handler(): Message 0, LIBSWO_PACKET_TYPE_DWT_PC_SAMPLE 
debg|decoder_swo.c:66->default_packet_handler(): Message 0, LIBSWO_PACKET_TYPE_OF 
debg|decoder_swo.c:66->default_packet_handler(): Message 0, LIBSWO_PACKET_TYPE_DWT_PC_SAMPLE 
debg|decoder_swo.c:66->default_packet_handler(): Message 0, LIBSWO_PACKET_TYPE_OF 
debg|decoder_swo.c:66->default_packet_handler(): Message 0, LIBSWO_PACKET_TYPE_DWT_PC_SAMPLE 
debg|decoder_swo.c:66->default_packet_handler(): Message 0, LIBSWO_PACKET_TYPE_OF 
debg|decoder_swo.c:66->default_packet_handler(): Message 0, LIBSWO_PACKET_TYPE_DWT_PC_SAMPLE 
debg|decoder_swo.c:66->default_packet_handler(): Message 0, LIBSWO_PACKET_TYPE_OF 
debg|decoder_swo.c:66->default_packet_handler(): Message 0, LIBSWO_PACKET_TYPE_DWT_PC_SAMPLE 
debg|decoder_swo.c:66->default_packet_handler(): Message 0, LIBSWO_PACKET_TYPE_OF 
debg|decoder_swo.c:66->default_packet_handler(): Message 0, LIBSWO_PACKET_TYPE_DWT_PC_SAMPLE 
debg|decoder_swo.c:66->default_packet_handler(): Message 0, LIBSWO_PACKET_TYPE_OF 
debg|decoder_swo.c:66->default_packet_handler(): Message 0, LIBSWO_PACKET_TYPE_DWT_PC_SAMPLE 
debg|decoder_swo.c:66->default_packet_handler(): Message 0, LIBSWO_PACKET_TYPE_OF 
debg|decoder_swo.c:66->default_packet_handler(): Message 0, LIBSWO_PACKET_TYPE_DWT_PC_SAMPLE 
debg|decoder_swo.c:66->default_packet_handler(): Message 0, LIBSWO_PACKET_TYPE_OF 
debg|decoder_swo.c:66->default_packet_handler(): Message 0, LIBSWO_PACKET_TYPE_DWT_PC_SAMPLE 
debg|decoder_swo.c:66->default_packet_handler(): Message 0, LIBSWO_PACKET_TYPE_OF 
debg|decoder_swo.c:66->default_packet_handler(): Message 0, LIBSWO_PACKET_TYPE_DWT_PC_SAMPLE 
debg|decoder_swo.c:66->default_packet_handler(): Message 0, LIBSWO_PACKET_TYPE_OF 
debg|decoder_swo.c:66->default_packet_handler(): Message 0, LIBSWO_PACKET_TYPE_DWT_PC_SAMPLE 
debg|decoder_swo.c:66->default_packet_handler(): Message 0, LIBSWO_PACKET_TYPE_OF 
debg|decoder_swo.c:66->default_packet_handler(): Message 0, LIBSWO_PACKET_TYPE_DWT_PC_SAMPLE 
debg|decoder_swo.c:66->default_packet_handler(): Message 0, LIBSWO_PACKET_TYPE_OF 
debg|decoder_swo.c:66->default_packet_handler(): Message 0, LIBSWO_PACKET_TYPE_DWT_PC_SAMPLE 
debg|decoder_swo.c:66->default_packet_handler(): Message 0, LIBSWO_PACKET_TYPE_OF 
debg|decoder_swo.c:66->default_packet_handler(): Message 0, LIBSWO_PACKET_TYPE_DWT_PC_SAMPLE 
debg|decoder_swo.c:66->default_packet_handler(): Message 0, LIBSWO_PACKET_TYPE_OF 
debg|decoder_swo.c:66->default_packet_handler(): Message 0, LIBSWO_PACKET_TYPE_DWT_PC_SAMPLE 
debg|decoder_swo.c:66->default_packet_handler(): Message 0, LIBSWO_PACKET_TYPE_OF 
debg|decoder_swo.c:66->default_packet_handler(): Message 0, LIBSWO_PACKET_TYPE_DWT_PC_SAMPLE 
debg|decoder_swo.c:66->default_packet_handler(): Message 0, LIBSWO_PACKET_TYPE_OF 
debg|decoder_swo.c:66->default_packet_handler(): Message 0, LIBSWO_PACKET_TYPE_DWT_PC_SAMPLE 
debg|decoder_swo.c:66->default_packet_handler(): Message 0, LIBSWO_PACKET_TYPE_OF 
debg|decoder_swo.c:66->default_packet_handler(): Message 0, LIBSWO_PACKET_TYPE_DWT_PC_SAMPLE 
debg|decoder_swo.c:66->default_packet_handler(): Message 0, LIBSWO_PACKET_TYPE_OF 
debg|decoder_swo.c:66->default_packet_handler(): Message 0, LIBSWO_PACKET_TYPE_DWT_PC_SAMPLE 
debg|decoder_swo.c:66->default_packet_handler(): Message 0, LIBSWO_PACKET_TYPE_OF 
debg|decoder_swo.c:66->default_packet_handler(): Message 0, LIBSWO_PACKET_TYPE_DWT_PC_SAMPLE 
debg|decoder_swo.c:66->default_packet_handler(): Message 0, LIBSWO_PACKET_TYPE_OF 
debg|decoder_swo.c:66->default_packet_handler(): Message 0, LIBSWO_PACKET_TYPE_DWT_PC_SAMPLE 
debg|decoder_swo.c:66->default_packet_handler(): Message 0, LIBSWO_PACKET_TYPE_OF 
debg|decoder_swo.c:66->default_packet_handler(): Message 0, LIBSWO_PACKET_TYPE_DWT_PC_SAMPLE 
debg|decoder_swo.c:214->decoder_swo_data_in(): decoded 22
debg|decoder_swo.c:216->decoder_swo_data_in(): total size decoded 880
debg|decoder_swo.c:217->decoder_swo_data_in(): Total number of decoded packet 1253
debg|decoder_swo.c:239->decoder_swo_data_out(): Number of data received 880
debgwarn|processing.c:49->processing_data_out_default(): No callback defined yet
|pkt_converter.c:594->pkt_convert(): Number of packet received 22
debg|decoder_swo.c:66->default_packet_handler(): Message 0, LIBSWO_PACKET_TYPE_OF 
debg|decoder_swo.c:66->default_packet_handler(): Message 0, LIBSWO_PACKET_TYPE_DWT_PC_SAMPLE 
debg|decoder_swo.c:66->default_packet_handler(): Message 0, LIBSWO_PACKET_TYPE_OF 
debg|decoder_swo.c:66->default_packet_handler(): Message 0, LIBSWO_PACKET_TYPE_DWT_PC_SAMPLE 
debg|decoder_swo.c:66->default_packet_handler(): Message 0, LIBSWO_PACKET_TYPE_OF 
debg|decoder_swo.c:66->default_packet_handler(): Message 0, LIBSWO_PACKET_TYPE_DWT_PC_SAMPLE 
debg|decoder_swo.c:66->default_packet_handler(): Message 0, LIBSWO_PACKET_TYPE_OF 
debg|decoder_swo.c:66->default_packet_handler(): Message 0, LIBSWO_PACKET_TYPE_DWT_PC_SAMPLE 
debg|decoder_swo.c:66->default_packet_handler(): Message 0, LIBSWO_PACKET_TYPE_OF 
debg|decoder_swo.c:66->default_packet_handler(): Message 0, LIBSWO_PACKET_TYPE_DWT_PC_SAMPLE 
debg|decoder_swo.c:66->default_packet_handler(): Message 0, LIBSWO_PACKET_TYPE_OF 
debg|decoder_swo.c:66->default_packet_handler(): Message 0, LIBSWO_PACKET_TYPE_DWT_PC_SAMPLE 
debg|decoder_swo.c:66->default_packet_handler(): Message 0, LIBSWO_PACKET_TYPE_OF 
debg|decoder_swo.c:66->default_packet_handler(): Message 0, LIBSWO_PACKET_TYPE_DWT_PC_SAMPLE 
debg|decoder_swo.c:66->default_packet_handler(): Message 0, LIBSWO_PACKET_TYPE_OF 
debg|decoder_swo.c:66->default_packet_handler(): Message 0, LIBSWO_PACKET_TYPE_DWT_PC_SAMPLE 
debg|decoder_swo.c:66->default_packet_handler(): Message 0, LIBSWO_PACKET_TYPE_OF 
debg|decoder_swo.c:66->default_packet_handler(): Message 0, LIBSWO_PACKET_TYPE_DWT_PC_SAMPLE 
debg|decoder_swo.c:66->default_packet_handler(): Message 0, LIBSWO_PACKET_TYPE_OF 
debg|decoder_swo.c:66->default_packet_handler(): Message 0, LIBSWO_PACKET_TYPE_DWT_PC_SAMPLE 
debg|decoder_swo.c:66->default_packet_handler(): Message 0, LIBSWO_PACKET_TYPE_OF 
debg|decoder_swo.c:66->default_packet_handler(): Message 0, LIBSWO_PACKET_TYPE_DWT_PC_SAMPLE 
debg|decoder_swo.c:66->default_packet_handler(): Message 0, LIBSWO_PACKET_TYPE_OF 
debg|decoder_swo.c:66->default_packet_handler(): Message 0, LIBSWO_PACKET_TYPE_DWT_PC_SAMPLE 
debg|decoder_swo.c:66->default_packet_handler(): Message 0, LIBSWO_PACKET_TYPE_OF 
debg|decoder_swo.c:66->default_packet_handler(): Message 0, LIBSWO_PACKET_TYPE_DWT_PC_SAMPLE 
debg|decoder_swo.c:66->default_packet_handler(): Message 0, LIBSWO_PACKET_TYPE_OF 
debg|decoder_swo.c:66->default_packet_handler(): Message 0, LIBSWO_PACKET_TYPE_DWT_PC_SAMPLE 
debg|decoder_swo.c:66->default_packet_handler(): Message 0, LIBSWO_PACKET_TYPE_OF 
debg|decoder_swo.c:66->default_packet_handler(): Message 0, LIBSWO_PACKET_TYPE_DWT_PC_SAMPLE 
debg|decoder_swo.c:66->default_packet_handler(): Message 0, LIBSWO_PACKET_TYPE_OF 
debg|decoder_swo.c:66->default_packet_handler(): Message 0, LIBSWO_PACKET_TYPE_DWT_PC_SAMPLE 
debg|decoder_swo.c:66->default_packet_handler(): Message 0, LIBSWO_PACKET_TYPE_OF 
debg|decoder_swo.c:66->default_packet_handler(): Message 0, LIBSWO_PACKET_TYPE_DWT_PC_SAMPLE 
debg|decoder_swo.c:66->default_packet_handler(): Message 0, LIBSWO_PACKET_TYPE_OF 
debg|decoder_swo.c:66->default_packet_handler(): Message 0, LIBSWO_PACKET_TYPE_DWT_PC_SAMPLE 
debg|decoder_swo.c:66->default_packet_handler(): Message 0, LIBSWO_PACKET_TYPE_OF 
debg|decoder_swo.c:66->default_packet_handler(): Message 0, LIBSWO_PACKET_TYPE_DWT_PC_SAMPLE 
debg|decoder_swo.c:66->default_packet_handler(): Message 0, LIBSWO_PACKET_TYPE_OF 
debg|decoder_swo.c:66->default_packet_handler(): Message 0, LIBSWO_PACKET_TYPE_DWT_PC_SAMPLE 
debg|decoder_swo.c:66->default_packet_handler(): Message 0, LIBSWO_PACKET_TYPE_OF 
debg|decoder_swo.c:66->default_packet_handler(): Message 0, LIBSWO_PACKET_TYPE_DWT_PC_SAMPLE 
debg|decoder_swo.c:66->default_packet_handler(): Message 0, LIBSWO_PACKET_TYPE_OF 
debg|decoder_swo.c:214->decoder_swo_data_in(): decoded 21
debg|decoder_swo.c:216->decoder_swo_data_in(): total size decoded 840
debg|decoder_swo.c:217->decoder_swo_data_in(): Total number of decoded packet 1274
debg|decoder_swo.c:warn|processing.c:49->processing_data_out_default(): No callback defined yet
239->decoder_swo_data_out(): Number of data received 840
debg|pkt_converter.c:594->pkt_convert(): Number of packet received 21
debg|decoder_swo.c:66->default_packet_handler(): Message 0, LIBSWO_PACKET_TYPE_DWT_PC_SAMPLE 
debg|decoder_swo.c:66->default_packet_handler(): Message 0, LIBSWO_PACKET_TYPE_OF 
debg|decoder_swo.c:66->default_packet_handler(): Message 0, LIBSWO_PACKET_TYPE_DWT_PC_SAMPLE 
debg|decoder_swo.c:66->default_packet_handler(): Message 0, LIBSWO_PACKET_TYPE_OF 
debg|decoder_swo.c:66->default_packet_handler(): Message 0, LIBSWO_PACKET_TYPE_DWT_PC_SAMPLE 
debg|decoder_swo.c:66->default_packet_handler(): Message 0, LIBSWO_PACKET_TYPE_OF 
debg|decoder_swo.c:66->default_packet_handler(): Message 0, LIBSWO_PACKET_TYPE_DWT_PC_SAMPLE 
debg|decoder_swo.c:66->default_packet_handler(): Message 0, LIBSWO_PACKET_TYPE_OF 
debg|decoder_swo.c:66->default_packet_handler(): Message 0, LIBSWO_PACKET_TYPE_DWT_PC_SAMPLE 
debg|decoder_swo.c:66->default_packet_handler(): Message 0, LIBSWO_PACKET_TYPE_OF 
debg|decoder_swo.c:66->default_packet_handler(): Message 0, LIBSWO_PACKET_TYPE_DWT_PC_SAMPLE 
debg|decoder_swo.c:66->default_packet_handler(): Message 0, LIBSWO_PACKET_TYPE_OF 
debg|decoder_swo.c:66->default_packet_handler(): Message 0, LIBSWO_PACKET_TYPE_DWT_PC_SAMPLE 
debg|decoder_swo.c:66->default_packet_handler(): Message 0, LIBSWO_PACKET_TYPE_OF 
debg|decoder_swo.c:66->default_packet_handler(): Message 0, LIBSWO_PACKET_TYPE_DWT_PC_SAMPLE 
debg|decoder_swo.c:66->default_packet_handler(): Message 0, LIBSWO_PACKET_TYPE_OF 
debg|decoder_swo.c:66->default_packet_handler(): Message 0, LIBSWO_PACKET_TYPE_DWT_PC_SAMPLE 
debg|decoder_swo.c:66->default_packet_handler(): Message 0, LIBSWO_PACKET_TYPE_OF 
debg|decoder_swo.c:66->default_packet_handler(): Message 0, LIBSWO_PACKET_TYPE_DWT_PC_SAMPLE 
debg|decoder_swo.c:66->default_packet_handler(): Message 0, LIBSWO_PACKET_TYPE_OF 
debg|decoder_swo.c:66->default_packet_handler(): Message 0, LIBSWO_PACKET_TYPE_DWT_PC_SAMPLE 
debg|decoder_swo.c:66->default_packet_handler(): Message 0, LIBSWO_PACKET_TYPE_OF 
debg|decoder_swo.c:66->default_packet_handler(): Message 0, LIBSWO_PACKET_TYPE_DWT_PC_SAMPLE 
debg|decoder_swo.c:66->default_packet_handler(): Message 0, LIBSWO_PACKET_TYPE_OF 
debg|decoder_swo.c:66->default_packet_handler(): Message 0, LIBSWO_PACKET_TYPE_DWT_PC_SAMPLE 
debg|decoder_swo.c:66->default_packet_handler(): Message 0, LIBSWO_PACKET_TYPE_OF 
debg|decoder_swo.c:66->default_packet_handler(): Message 0, LIBSWO_PACKET_TYPE_DWT_PC_SAMPLE 
debg|decoder_swo.c:66->default_packet_handler(): Message 0, LIBSWO_PACKET_TYPE_OF 
debg|decoder_swo.c:66->default_packet_handler(): Message 0, LIBSWO_PACKET_TYPE_DWT_PC_SAMPLE 
debg|decoder_swo.c:66->default_packet_handler(): Message 0, LIBSWO_PACKET_TYPE_OF 
debg|decoder_swo.c:66->default_packet_handler(): Message 0, LIBSWO_PACKET_TYPE_DWT_PC_SAMPLE 
debg|decoder_swo.c:66->default_packet_handler(): Message 0, LIBSWO_PACKET_TYPE_OF 
debg|decoder_swo.c:66->default_packet_handler(): Message 0, LIBSWO_PACKET_TYPE_DWT_PC_SAMPLE 
debg|decoder_swo.c:66->default_packet_handler(): Message 0, LIBSWO_PACKET_TYPE_OF 
debg|decoder_swo.c:66->default_packet_handler(): Message 0, LIBSWO_PACKET_TYPE_DWT_PC_SAMPLE 
debg|decoder_swo.c:66->default_packet_handler(): Message 0, LIBSWO_PACKET_TYPE_OF 
debg|decoder_swo.c:66->default_packet_handler(): Message 0, LIBSWO_PACKET_TYPE_DWT_PC_SAMPLE 
debg|decoder_swo.c:66->default_packet_handler(): Message 0, LIBSWO_PACKET_TYPE_OF 
debg|decoder_swo.c:66->default_packet_handler(): Message 0, LIBSWO_PACKET_TYPE_DWT_PC_SAMPLE 
debg|decoder_swo.c:66->default_packet_handler(): Message 0, LIBSWO_PACKET_TYPE_OF 
debg|decoder_swo.c:66->default_packet_handler(): Message 0, LIBSWO_PACKET_TYPE_DWT_PC_SAMPLE 
debg|decoder_swo.c:66->default_packet_handler(): Message 0, LIBSWO_PACKET_TYPE_OF 
debg|decoder_swo.c:214->decoder_swo_data_in(): decoded 21
debg|decoder_swo.c:216->decoder_swo_data_in(): total size decoded 840
debg|decoder_swo.c:217->decoder_swo_data_in(): Total number of decoded packet 1295
debg|decoder_swo.c:239->decoder_swo_data_warn|processing.c:49->processing_data_out_default(): No callback defined yet
out(): Number of data received 840
debg|pkt_converter.c:594->pkt_convert(): Number of packet received 21
debg|decoder_swo.c:66->default_packet_handler(): Message 0, LIBSWO_PACKET_TYPE_DWT_PC_SAMPLE 
debg|decoder_swo.c:66->default_packet_handler(): Message 0, LIBSWO_PACKET_TYPE_OF 
debg|decoder_swo.c:66->default_packet_handler(): Message 0, LIBSWO_PACKET_TYPE_DWT_PC_SAMPLE 
debg|decoder_swo.c:66->default_packet_handler(): Message 0, LIBSWO_PACKET_TYPE_OF 
debg|decoder_swo.c:66->default_packet_handler(): Message 0, LIBSWO_PACKET_TYPE_DWT_PC_SAMPLE 
debg|decoder_swo.c:66->default_packet_handler(): Message 0, LIBSWO_PACKET_TYPE_OF 
debg|decoder_swo.c:66->default_packet_handler(): Message 0, LIBSWO_PACKET_TYPE_DWT_PC_SAMPLE 
debg|decoder_swo.c:66->default_packet_handler(): Message 0, LIBSWO_PACKET_TYPE_OF 
debg|decoder_swo.c:66->default_packet_handler(): Message 0, LIBSWO_PACKET_TYPE_DWT_PC_SAMPLE 
debg|decoder_swo.c:66->default_packet_handler(): Message 0, LIBSWO_PACKET_TYPE_OF 
debg|decoder_swo.c:66->default_packet_handler(): Message 0, LIBSWO_PACKET_TYPE_DWT_PC_SAMPLE 
debg|decoder_swo.c:66->default_packet_handler(): Message 0, LIBSWO_PACKET_TYPE_OF 
debg|decoder_swo.c:66->default_packet_handler(): Message 0, LIBSWO_PACKET_TYPE_DWT_PC_SAMPLE 
debg|decoder_swo.c:66->default_packet_handler(): Message 0, LIBSWO_PACKET_TYPE_OF 
debg|decoder_swo.c:66->default_packet_handler(): Message 0, LIBSWO_PACKET_TYPE_DWT_PC_SAMPLE 
debg|decoder_swo.c:66->default_packet_handler(): Message 0, LIBSWO_PACKET_TYPE_OF 
debg|decoder_swo.c:66->default_packet_handler(): Message 0, LIBSWO_PACKET_TYPE_DWT_PC_SAMPLE 
debg|decoder_swo.c:66->default_packet_handler(): Message 0, LIBSWO_PACKET_TYPE_OF 
debg|decoder_swo.c:66->default_packet_handler(): Message 0, LIBSWO_PACKET_TYPE_DWT_PC_SAMPLE 
debg|decoder_swo.c:66->default_packet_handler(): Message 0, LIBSWO_PACKET_TYPE_OF 
debg|decoder_swo.c:66->default_packet_handler(): Message 0, LIBSWO_PACKET_TYPE_DWT_PC_SAMPLE 
debg|decoder_swo.c:66->default_packet_handler(): Message 0, LIBSWO_PACKET_TYPE_OF 
debg|decoder_swo.c:66->default_packet_handler(): Message 0, LIBSWO_PACKET_TYPE_DWT_PC_SAMPLE 
debg|decoder_swo.c:66->default_packet_handler(): Message 0, LIBSWO_PACKET_TYPE_OF 
debg|decoder_swo.c:66->default_packet_handler(): Message 0, LIBSWO_PACKET_TYPE_DWT_PC_SAMPLE 
debg|decoder_swo.c:66->default_packet_handler(): Message 0, LIBSWO_PACKET_TYPE_OF 
debg|decoder_swo.c:66->default_packet_handler(): Message 0, LIBSWO_PACKET_TYPE_DWT_PC_SAMPLE 
debg|decoder_swo.c:66->default_packet_handler(): Message 0, LIBSWO_PACKET_TYPE_OF 
debg|decoder_swo.c:66->default_packet_handler(): Message 0, LIBSWO_PACKET_TYPE_DWT_PC_SAMPLE 
debg|decoder_swo.c:66->default_packet_handler(): Message 0, LIBSWO_PACKET_TYPE_OF 
debg|decoder_swo.c:66->default_packet_handler(): Message 0, LIBSWO_PACKET_TYPE_DWT_PC_SAMPLE 
debg|decoder_swo.c:66->default_packet_handler(): Message 0, LIBSWO_PACKET_TYPE_OF 
debg|decoder_swo.c:66->default_packet_handler(): Message 0, LIBSWO_PACKET_TYPE_DWT_PC_SAMPLE 
debg|decoder_swo.c:66->default_packet_handler(): Message 0, LIBSWO_PACKET_TYPE_OF 
debg|decoder_swo.c:66->default_packet_handler(): Message 0, LIBSWO_PACKET_TYPE_DWT_PC_SAMPLE 
debg|decoder_swo.c:66->default_packet_handler(): Message 0, LIBSWO_PACKET_TYPE_OF 
debg|decoder_swo.c:66->default_packet_handler(): Message 0, LIBSWO_PACKET_TYPE_DWT_PC_SAMPLE 
debg|decoder_swo.c:66->default_packet_handler(): Message 0, LIBSWO_PACKET_TYPE_OF 
debg|decoder_swo.c:66->default_packet_handler(): Message 0, LIBSWO_PACKET_TYPE_DWT_PC_SAMPLE 
debg|decoder_swo.c:66->default_packet_handler(): Message 0, LIBSWO_PACKET_TYPE_OF 
debg|decoder_swo.c:66->default_packet_handler(): Message 0, LIBSWO_PACKET_TYPE_DWT_PC_SAMPLE 
debg|decoder_swo.c:66->default_packet_handler(): Message 0, LIBSWO_PACKET_TYPE_OF 
debg|decoder_swo.c:66->default_packet_handler(): Message 0, LIBSWO_PACKET_TYPE_DWT_PC_SAMPLE 
debg|decoder_swo.c:214->decoder_swo_data_in(): decoded 22
debg|decoder_swo.c:216->decoder_swo_data_in(): total size decoded 880
debg|decoder_swo.c:217->decoder_swo_data_in(): Totalwarn|processing.c:49->processing_data_out_default(): No callback defined yet
 number of decoded packet 1317
debg|decoder_swo.c:239->decoder_swo_data_out(): Number of data received 880
debg|pkt_converter.c:594->pkt_convert(): Number of packet received 22
debg|decoder_swo.c:66->default_packet_handler(): Message 0, LIBSWO_PACKET_TYPE_OF 
debg|decoder_swo.c:66->default_packet_handler(): Message 0, LIBSWO_PACKET_TYPE_DWT_PC_SAMPLE 
debg|decoder_swo.c:66->default_packet_handler(): Message 0, LIBSWO_PACKET_TYPE_OF 
debg|decoder_swo.c:66->default_packet_handler(): Message 0, LIBSWO_PACKET_TYPE_DWT_PC_SAMPLE 
debg|decoder_swo.c:66->default_packet_handler(): Message 0, LIBSWO_PACKET_TYPE_OF 
debg|decoder_swo.c:66->default_packet_handler(): Message 0, LIBSWO_PACKET_TYPE_DWT_PC_SAMPLE 
debg|decoder_swo.c:66->default_packet_handler(): Message 0, LIBSWO_PACKET_TYPE_OF 
debg|decoder_swo.c:66->default_packet_handler(): Message 0, LIBSWO_PACKET_TYPE_DWT_PC_SAMPLE 
debg|decoder_swo.c:66->default_packet_handler(): Message 0, LIBSWO_PACKET_TYPE_OF 
debg|decoder_swo.c:66->default_packet_handler(): Message 0, LIBSWO_PACKET_TYPE_DWT_PC_SAMPLE 
debg|decoder_swo.c:66->default_packet_handler(): Message 0, LIBSWO_PACKET_TYPE_OF 
debg|decoder_swo.c:66->default_packet_handler(): Message 0, LIBSWO_PACKET_TYPE_DWT_PC_SAMPLE 
debg|decoder_swo.c:66->default_packet_handler(): Message 0, LIBSWO_PACKET_TYPE_OF 
debg|decoder_swo.c:66->default_packet_handler(): Message 0, LIBSWO_PACKET_TYPE_DWT_PC_SAMPLE 
debg|decoder_swo.c:66->default_packet_handler(): Message 0, LIBSWO_PACKET_TYPE_OF 
debg|decoder_swo.c:66->default_packet_handler(): Message 0, LIBSWO_PACKET_TYPE_DWT_PC_SAMPLE 
debg|decoder_swo.c:66->default_packet_handler(): Message 0, LIBSWO_PACKET_TYPE_OF 
debg|decoder_swo.c:66->default_packet_handler(): Message 0, LIBSWO_PACKET_TYPE_DWT_PC_SAMPLE 
debg|decoder_swo.c:66->default_packet_handler(): Message 0, LIBSWO_PACKET_TYPE_OF 
debg|decoder_swo.c:66->default_packet_handler(): Message 0, LIBSWO_PACKET_TYPE_DWT_PC_SAMPLE 
debg|decoder_swo.c:66->default_packet_handler(): Message 0, LIBSWO_PACKET_TYPE_OF 
debg|decoder_swo.c:66->default_packet_handler(): Message 0, LIBSWO_PACKET_TYPE_DWT_PC_SAMPLE 
debg|decoder_swo.c:66->default_packet_handler(): Message 0, LIBSWO_PACKET_TYPE_OF 
debg|decoder_swo.c:66->default_packet_handler(): Message 0, LIBSWO_PACKET_TYPE_DWT_PC_SAMPLE 
debg|decoder_swo.c:66->default_packet_handler(): Message 0, LIBSWO_PACKET_TYPE_OF 
debg|decoder_swo.c:66->default_packet_handler(): Message 0, LIBSWO_PACKET_TYPE_DWT_PC_SAMPLE 
debg|decoder_swo.c:66->default_packet_handler(): Message 0, LIBSWO_PACKET_TYPE_OF 
debg|decoder_swo.c:66->default_packet_handler(): Message 0, LIBSWO_PACKET_TYPE_DWT_PC_SAMPLE 
debg|decoder_swo.c:66->default_packet_handler(): Message 0, LIBSWO_PACKET_TYPE_OF 
debg|decoder_swo.c:66->default_packet_handler(): Message 0, LIBSWO_PACKET_TYPE_DWT_PC_SAMPLE 
debg|decoder_swo.c:66->default_packet_handler(): Message 0, LIBSWO_PACKET_TYPE_OF 
debg|decoder_swo.c:66->default_packet_handler(): Message 0, LIBSWO_PACKET_TYPE_DWT_PC_SAMPLE 
debg|decoder_swo.c:66->default_packet_handler(): Message 0, LIBSWO_PACKET_TYPE_OF 
debg|decoder_swo.c:66->default_packet_handler(): Message 0, LIBSWO_PACKET_TYPE_DWT_PC_SAMPLE 
debg|decoder_swo.c:66->default_packet_handler(): Message 0, LIBSWO_PACKET_TYPE_OF 
debg|decoder_swo.c:66->default_packet_handler(): Message 0, LIBSWO_PACKET_TYPE_DWT_PC_SAMPLE 
debg|decoder_swo.c:66->default_packet_handler(): Message 0, LIBSWO_PACKET_TYPE_OF 
debg|decoder_swo.c:66->default_packet_handler(): Message 0, LIBSWO_PACKET_TYPE_DWT_PC_SAMPLE 
debg|decoder_swo.c:66->default_packet_handler(): Message 0, LIBSWO_PACKET_TYPE_OF 
debg|decoder_swo.c:66->default_packet_handler(): Message 0, LIBSWO_PACKET_TYPE_DWT_PC_SAMPLE 
debg|decoder_swo.c:66->default_packet_handler(): Message 0, LIBSWO_PACKET_TYPE_OF 
debg|decoder_swo.c:66->default_packet_handler(): Message 0, LIBSWO_PACKET_TYPE_DWT_PC_SAMPLE 
debg|decoder_swo.c:66->default_packet_handler(): Message 0, LIBSWO_PACKET_TYPE_OF 
debg|decoder_swo.c:214->decoder_swo_data_in(): decoded 21
debg|decoder_swo.c:216->decoder_swo_data_in(): total size decwarn|processing.c:49->processing_data_out_default(): No callback defined yet
oded 840
debg|decoder_swo.c:217->decoder_swo_data_in(): Total number of decoded packet 1338
debg|decoder_swo.c:239->decoder_swo_data_out(): Number of data received 840
debg|pkt_converter.c:594->pkt_convert(): Number of packet received 21
debg|decoder_swo.c:66->default_packet_handler(): Message 0, LIBSWO_PACKET_TYPE_DWT_PC_SAMPLE 
debg|decoder_swo.c:66->default_packet_handler(): Message 0, LIBSWO_PACKET_TYPE_OF 
debg|decoder_swo.c:66->default_packet_handler(): Message 0, LIBSWO_PACKET_TYPE_DWT_PC_SAMPLE 
debg|decoder_swo.c:66->default_packet_handler(): Message 0, LIBSWO_PACKET_TYPE_OF 
debg|decoder_swo.c:66->default_packet_handler(): Message 0, LIBSWO_PACKET_TYPE_DWT_PC_SAMPLE 
debg|decoder_swo.c:66->default_packet_handler(): Message 0, LIBSWO_PACKET_TYPE_OF 
debg|decoder_swo.c:66->default_packet_handler(): Message 0, LIBSWO_PACKET_TYPE_DWT_PC_SAMPLE 
debg|decoder_swo.c:66->default_packet_handler(): Message 0, LIBSWO_PACKET_TYPE_OF 
debg|decoder_swo.c:66->default_packet_handler(): Message 0, LIBSWO_PACKET_TYPE_DWT_PC_SAMPLE 
debg|decoder_swo.c:66->default_packet_handler(): Message 0, LIBSWO_PACKET_TYPE_OF 
debg|decoder_swo.c:66->default_packet_handler(): Message 0, LIBSWO_PACKET_TYPE_DWT_PC_SAMPLE 
debg|decoder_swo.c:66->default_packet_handler(): Message 0, LIBSWO_PACKET_TYPE_OF 
debg|decoder_swo.c:66->default_packet_handler(): Message 0, LIBSWO_PACKET_TYPE_DWT_PC_SAMPLE 
debg|decoder_swo.c:66->default_packet_handler(): Message 0, LIBSWO_PACKET_TYPE_OF 
debg|decoder_swo.c:66->default_packet_handler(): Message 0, LIBSWO_PACKET_TYPE_DWT_PC_SAMPLE 
debg|decoder_swo.c:66->default_packet_handler(): Message 0, LIBSWO_PACKET_TYPE_OF 
debg|decoder_swo.c:66->default_packet_handler(): Message 0, LIBSWO_PACKET_TYPE_DWT_PC_SAMPLE 
debg|decoder_swo.c:66->default_packet_handler(): Message 0, LIBSWO_PACKET_TYPE_OF 
debg|decoder_swo.c:66->default_packet_handler(): Message 0, LIBSWO_PACKET_TYPE_DWT_PC_SAMPLE 
debg|decoder_swo.c:66->default_packet_handler(): Message 0, LIBSWO_PACKET_TYPE_OF 
debg|decoder_swo.c:66->default_packet_handler(): Message 0, LIBSWO_PACKET_TYPE_DWT_PC_SAMPLE 
debg|decoder_swo.c:66->default_packet_handler(): Message 0, LIBSWO_PACKET_TYPE_OF 
debg|decoder_swo.c:66->default_packet_handler(): Message 0, LIBSWO_PACKET_TYPE_DWT_PC_SAMPLE 
debg|decoder_swo.c:66->default_packet_handler(): Message 0, LIBSWO_PACKET_TYPE_OF 
debg|decoder_swo.c:66->default_packet_handler(): Message 0, LIBSWO_PACKET_TYPE_DWT_PC_SAMPLE 
debg|decoder_swo.c:66->default_packet_handler(): Message 0, LIBSWO_PACKET_TYPE_OF 
debg|decoder_swo.c:66->default_packet_handler(): Message 0, LIBSWO_PACKET_TYPE_DWT_PC_SAMPLE 
debg|decoder_swo.c:66->default_packet_handler(): Message 0, LIBSWO_PACKET_TYPE_OF 
debg|decoder_swo.c:66->default_packet_handler(): Message 0, LIBSWO_PACKET_TYPE_DWT_PC_SAMPLE 
debg|decoder_swo.c:66->default_packet_handler(): Message 0, LIBSWO_PACKET_TYPE_OF 
debg|decoder_swo.c:66->default_packet_handler(): Message 0, LIBSWO_PACKET_TYPE_DWT_PC_SAMPLE 
debg|decoder_swo.c:66->default_packet_handler(): Message 0, LIBSWO_PACKET_TYPE_OF 
debg|decoder_swo.c:66->default_packet_handler(): Message 0, LIBSWO_PACKET_TYPE_DWT_PC_SAMPLE 
debg|decoder_swo.c:66->default_packet_handler(): Message 0, LIBSWO_PACKET_TYPE_OF 
debg|decoder_swo.c:66->default_packet_handler(): Message 0, LIBSWO_PACKET_TYPE_DWT_PC_SAMPLE 
debg|decoder_swo.c:66->default_packet_handler(): Message 0, LIBSWO_PACKET_TYPE_OF 
debg|decoder_swo.c:66->default_packet_handler(): Message 0, LIBSWO_PACKET_TYPE_DWT_PC_SAMPLE 
debg|decoder_swo.c:66->default_packet_handler(): Message 0, LIBSWO_PACKET_TYPE_OF 
debg|decoder_swo.c:66->default_packet_handler(): Message 0, LIBSWO_PACKET_TYPE_DWT_PC_SAMPLE 
debg|decoder_swo.c:66->default_packet_handler(): Message 0, LIBSWO_PACKET_TYPE_OF 
debg|decoder_swo.c:66->default_packet_handler(): Message 0, LIBSWO_PACKET_TYPE_DWT_PC_SAMPLE 
debg|decoder_swo.c:66->default_packet_handler(): Message 0, LIBSWO_PACKET_TYPE_OF 
debg|decoder_swo.c:214->decoder_swo_data_in(): decoded 21
debg|decoder_swo.c:216->decoder_swo_data_in(): total size decoded 840
debg|decoder_warn|processing.c:49->processing_data_out_default(): No callback defined yet
swo.c:217->decoder_swo_data_in(): Total number of decoded packet 1359
debg|decoder_swo.c:239->decoder_swo_data_out(): Number of data received 840
debg|pkt_converter.c:594->pkt_convert(): Number of packet received 21
debg|decoder_swo.c:66->default_packet_handler(): Message 0, LIBSWO_PACKET_TYPE_DWT_PC_SAMPLE 
debg|decoder_swo.c:66->default_packet_handler(): Message 0, LIBSWO_PACKET_TYPE_OF 
debg|decoder_swo.c:66->default_packet_handler(): Message 0, LIBSWO_PACKET_TYPE_DWT_PC_SAMPLE 
debg|decoder_swo.c:66->default_packet_handler(): Message 0, LIBSWO_PACKET_TYPE_OF 
debg|decoder_swo.c:66->default_packet_handler(): Message 0, LIBSWO_PACKET_TYPE_DWT_PC_SAMPLE 
debg|decoder_swo.c:66->default_packet_handler(): Message 0, LIBSWO_PACKET_TYPE_OF 
debg|decoder_swo.c:66->default_packet_handler(): Message 0, LIBSWO_PACKET_TYPE_DWT_PC_SAMPLE 
debg|decoder_swo.c:66->default_packet_handler(): Message 0, LIBSWO_PACKET_TYPE_OF 
debg|decoder_swo.c:66->default_packet_handler(): Message 0, LIBSWO_PACKET_TYPE_DWT_PC_SAMPLE 
debg|decoder_swo.c:66->default_packet_handler(): Message 0, LIBSWO_PACKET_TYPE_OF 
debg|decoder_swo.c:66->default_packet_handler(): Message 0, LIBSWO_PACKET_TYPE_DWT_PC_SAMPLE 
debg|decoder_swo.c:66->default_packet_handler(): Message 0, LIBSWO_PACKET_TYPE_OF 
debg|decoder_swo.c:66->default_packet_handler(): Message 0, LIBSWO_PACKET_TYPE_DWT_PC_SAMPLE 
debg|decoder_swo.c:66->default_packet_handler(): Message 0, LIBSWO_PACKET_TYPE_OF 
debg|decoder_swo.c:66->default_packet_handler(): Message 0, LIBSWO_PACKET_TYPE_DWT_PC_SAMPLE 
debg|decoder_swo.c:66->default_packet_handler(): Message 0, LIBSWO_PACKET_TYPE_OF 
debg|decoder_swo.c:66->default_packet_handler(): Message 0, LIBSWO_PACKET_TYPE_DWT_PC_SAMPLE 
debg|decoder_swo.c:66->default_packet_handler(): Message 0, LIBSWO_PACKET_TYPE_OF 
debg|decoder_swo.c:66->default_packet_handler(): Message 0, LIBSWO_PACKET_TYPE_DWT_PC_SAMPLE 
debg|decoder_swo.c:66->default_packet_handler(): Message 0, LIBSWO_PACKET_TYPE_OF 
debg|decoder_swo.c:66->default_packet_handler(): Message 0, LIBSWO_PACKET_TYPE_DWT_PC_SAMPLE 
debg|decoder_swo.c:66->default_packet_handler(): Message 0, LIBSWO_PACKET_TYPE_OF 
debg|decoder_swo.c:66->default_packet_handler(): Message 0, LIBSWO_PACKET_TYPE_DWT_PC_SAMPLE 
debg|decoder_swo.c:66->default_packet_handler(): Message 0, LIBSWO_PACKET_TYPE_OF 
debg|decoder_swo.c:66->default_packet_handler(): Message 0, LIBSWO_PACKET_TYPE_DWT_PC_SAMPLE 
debg|decoder_swo.c:66->default_packet_handler(): Message 0, LIBSWO_PACKET_TYPE_OF 
debg|decoder_swo.c:66->default_packet_handler(): Message 0, LIBSWO_PACKET_TYPE_DWT_PC_SAMPLE 
debg|decoder_swo.c:66->default_packet_handler(): Message 0, LIBSWO_PACKET_TYPE_OF 
debg|decoder_swo.c:66->default_packet_handler(): Message 0, LIBSWO_PACKET_TYPE_DWT_PC_SAMPLE 
debg|decoder_swo.c:66->default_packet_handler(): Message 0, LIBSWO_PACKET_TYPE_OF 
debg|decoder_swo.c:66->default_packet_handler(): Message 0, LIBSWO_PACKET_TYPE_DWT_PC_SAMPLE 
debg|decoder_swo.c:66->default_packet_handler(): Message 0, LIBSWO_PACKET_TYPE_OF 
debg|decoder_swo.c:66->default_packet_handler(): Message 0, LIBSWO_PACKET_TYPE_DWT_PC_SAMPLE 
debg|decoder_swo.c:66->default_packet_handler(): Message 0, LIBSWO_PACKET_TYPE_OF 
debg|decoder_swo.c:66->default_packet_handler(): Message 0, LIBSWO_PACKET_TYPE_DWT_PC_SAMPLE 
debg|decoder_swo.c:66->default_packet_handler(): Message 0, LIBSWO_PACKET_TYPE_OF 
debg|decoder_swo.c:66->default_packet_handler(): Message 0, LIBSWO_PACKET_TYPE_DWT_PC_SAMPLE 
debg|decoder_swo.c:66->default_packet_handler(): Message 0, LIBSWO_PACKET_TYPE_OF 
debg|decoder_swo.c:66->default_packet_handler(): Message 0, LIBSWO_PACKET_TYPE_DWT_PC_SAMPLE 
debg|decoder_swo.c:66->default_packet_handler(): Message 0, LIBSWO_PACKET_TYPE_OF 
debg|decoder_swo.c:66->default_packet_handler(): Message 0, LIBSWO_PACKET_TYPE_DWT_PC_SAMPLE 
debg|decoder_swo.c:66->default_packet_handler(): Message 0, LIBSWO_PACKET_TYPE_OF 
debg|decoder_swo.c:66->default_packet_handler(): Message 0, LIBSWO_PACKET_TYPE_DWT_PC_SAMPLE 
debg|decoder_swo.c:214->decoder_swo_data_in(): decoded 22
debg|decodewarn|processing.c:49->processing_data_out_default(): No callback defined yet
r_swo.c:216->decoder_swo_data_in(): total size decoded 880
debg|decoder_swo.c:217->decoder_swo_data_in(): Total number of decoded packet 1381
debg|decoder_swo.c:239->decoder_swo_data_out(): Number of data received 880
debg|pkt_converter.c:594->pkt_convert(): Number of packet received 22
debg|decoder_swo.c:66->default_packet_handler(): Message 0, LIBSWO_PACKET_TYPE_OF 
debg|decoder_swo.c:66->default_packet_handler(): Message 0, LIBSWO_PACKET_TYPE_DWT_PC_SAMPLE 
debg|decoder_swo.c:66->default_packet_handler(): Message 0, LIBSWO_PACKET_TYPE_OF 
debg|decoder_swo.c:66->default_packet_handler(): Message 0, LIBSWO_PACKET_TYPE_DWT_PC_SAMPLE 
debg|decoder_swo.c:66->default_packet_handler(): Message 0, LIBSWO_PACKET_TYPE_OF 
debg|decoder_swo.c:66->default_packet_handler(): Message 0, LIBSWO_PACKET_TYPE_DWT_PC_SAMPLE 
debg|decoder_swo.c:66->default_packet_handler(): Message 0, LIBSWO_PACKET_TYPE_OF 
debg|decoder_swo.c:66->default_packet_handler(): Message 0, LIBSWO_PACKET_TYPE_DWT_PC_SAMPLE 
debg|decoder_swo.c:66->default_packet_handler(): Message 0, LIBSWO_PACKET_TYPE_OF 
debg|decoder_swo.c:66->default_packet_handler(): Message 0, LIBSWO_PACKET_TYPE_DWT_PC_SAMPLE 
debg|decoder_swo.c:66->default_packet_handler(): Message 0, LIBSWO_PACKET_TYPE_OF 
debg|decoder_swo.c:66->default_packet_handler(): Message 0, LIBSWO_PACKET_TYPE_DWT_PC_SAMPLE 
debg|decoder_swo.c:66->default_packet_handler(): Message 0, LIBSWO_PACKET_TYPE_OF 
debg|decoder_swo.c:66->default_packet_handler(): Message 0, LIBSWO_PACKET_TYPE_DWT_PC_SAMPLE 
debg|decoder_swo.c:66->default_packet_handler(): Message 0, LIBSWO_PACKET_TYPE_OF 
debg|decoder_swo.c:66->default_packet_handler(): Message 0, LIBSWO_PACKET_TYPE_DWT_PC_SAMPLE 
debg|decoder_swo.c:66->default_packet_handler(): Message 0, LIBSWO_PACKET_TYPE_OF 
debg|decoder_swo.c:66->default_packet_handler(): Message 0, LIBSWO_PACKET_TYPE_DWT_PC_SAMPLE 
debg|decoder_swo.c:66->default_packet_handler(): Message 0, LIBSWO_PACKET_TYPE_OF 
debg|decoder_swo.c:66->default_packet_handler(): Message 0, LIBSWO_PACKET_TYPE_DWT_PC_SAMPLE 
debg|decoder_swo.c:66->default_packet_handler(): Message 0, LIBSWO_PACKET_TYPE_OF 
debg|decoder_swo.c:66->default_packet_handler(): Message 0, LIBSWO_PACKET_TYPE_DWT_PC_SAMPLE 
debg|decoder_swo.c:66->default_packet_handler(): Message 0, LIBSWO_PACKET_TYPE_OF 
debg|decoder_swo.c:66->default_packet_handler(): Message 0, LIBSWO_PACKET_TYPE_DWT_PC_SAMPLE 
debg|decoder_swo.c:66->default_packet_handler(): Message 0, LIBSWO_PACKET_TYPE_OF 
debg|decoder_swo.c:66->default_packet_handler(): Message 0, LIBSWO_PACKET_TYPE_DWT_PC_SAMPLE 
debg|decoder_swo.c:66->default_packet_handler(): Message 0, LIBSWO_PACKET_TYPE_OF 
debg|decoder_swo.c:66->default_packet_handler(): Message 0, LIBSWO_PACKET_TYPE_DWT_PC_SAMPLE 
debg|decoder_swo.c:66->default_packet_handler(): Message 0, LIBSWO_PACKET_TYPE_OF 
debg|decoder_swo.c:66->default_packet_handler(): Message 0, LIBSWO_PACKET_TYPE_DWT_PC_SAMPLE 
debg|decoder_swo.c:66->default_packet_handler(): Message 0, LIBSWO_PACKET_TYPE_OF 
debg|decoder_swo.c:66->default_packet_handler(): Message 0, LIBSWO_PACKET_TYPE_DWT_PC_SAMPLE 
debg|decoder_swo.c:66->default_packet_handler(): Message 0, LIBSWO_PACKET_TYPE_OF 
debg|decoder_swo.c:66->default_packet_handler(): Message 0, LIBSWO_PACKET_TYPE_DWT_PC_SAMPLE 
debg|decoder_swo.c:66->default_packet_handler(): Message 0, LIBSWO_PACKET_TYPE_OF 
debg|decoder_swo.c:66->default_packet_handler(): Message 0, LIBSWO_PACKET_TYPE_DWT_PC_SAMPLE 
debg|decoder_swo.c:66->default_packet_handler(): Message 0, LIBSWO_PACKET_TYPE_OF 
debg|decoder_swo.c:66->default_packet_handler(): Message 0, LIBSWO_PACKET_TYPE_DWT_PC_SAMPLE 
debg|decoder_swo.c:66->default_packet_handler(): Message 0, LIBSWO_PACKET_TYPE_OF 
debg|decoder_swo.c:66->default_packet_handler(): Message 0, LIBSWO_PACKET_TYPE_DWT_PC_SAMPLE 
debg|decoder_swo.c:66->default_packet_handler(): Message 0, LIBSWO_PACKET_TYPE_OF 
debg|decoder_swo.c:66->default_packet_handler(): Message 0, LIBSWO_PACKET_TYPE_DWT_PC_SAMPLE 
debg|decoder_swo.c:66->default_packet_handler(): Message 0, LIBSWO_PACKET_TYPE_OF 
debg|decwarn|processing.c:49->processing_data_out_default(): No callback defined yet
oder_swo.c:214->decoder_swo_data_in(): decoded 21
debg|decoder_swo.c:216->decoder_swo_data_in(): total size decoded 840
debg|decoder_swo.c:217->decoder_swo_data_in(): Total number of decoded packet 1402
debg|decoder_swo.c:239->decoder_swo_data_out(): Number of data received 840
debg|pkt_converter.c:594->pkt_convert(): Number of packet received 21
debg|decoder_swo.c:66->default_packet_handler(): Message 0, LIBSWO_PACKET_TYPE_DWT_PC_SAMPLE 
debg|decoder_swo.c:66->default_packet_handler(): Message 0, LIBSWO_PACKET_TYPE_OF 
debg|decoder_swo.c:66->default_packet_handler(): Message 0, LIBSWO_PACKET_TYPE_DWT_PC_SAMPLE 
debg|decoder_swo.c:66->default_packet_handler(): Message 0, LIBSWO_PACKET_TYPE_OF 
debg|decoder_swo.c:66->default_packet_handler(): Message 0, LIBSWO_PACKET_TYPE_DWT_PC_SAMPLE 
debg|decoder_swo.c:66->default_packet_handler(): Message 0, LIBSWO_PACKET_TYPE_OF 
debg|decoder_swo.c:66->default_packet_handler(): Message 0, LIBSWO_PACKET_TYPE_DWT_PC_SAMPLE 
debg|decoder_swo.c:66->default_packet_handler(): Message 0, LIBSWO_PACKET_TYPE_OF 
debg|decoder_swo.c:66->default_packet_handler(): Message 0, LIBSWO_PACKET_TYPE_DWT_PC_SAMPLE 
debg|decoder_swo.c:66->default_packet_handler(): Message 0, LIBSWO_PACKET_TYPE_OF 
debg|decoder_swo.c:66->default_packet_handler(): Message 0, LIBSWO_PACKET_TYPE_DWT_PC_SAMPLE 
debg|decoder_swo.c:66->default_packet_handler(): Message 0, LIBSWO_PACKET_TYPE_OF 
debg|decoder_swo.c:66->default_packet_handler(): Message 0, LIBSWO_PACKET_TYPE_DWT_PC_SAMPLE 
debg|decoder_swo.c:66->default_packet_handler(): Message 0, LIBSWO_PACKET_TYPE_OF 
debg|decoder_swo.c:66->default_packet_handler(): Message 0, LIBSWO_PACKET_TYPE_DWT_PC_SAMPLE 
debg|decoder_swo.c:66->default_packet_handler(): Message 0, LIBSWO_PACKET_TYPE_OF 
debg|decoder_swo.c:66->default_packet_handler(): Message 0, LIBSWO_PACKET_TYPE_DWT_PC_SAMPLE 
debg|decoder_swo.c:66->default_packet_handler(): Message 0, LIBSWO_PACKET_TYPE_OF 
debg|decoder_swo.c:66->default_packet_handler(): Message 0, LIBSWO_PACKET_TYPE_DWT_PC_SAMPLE 
debg|decoder_swo.c:66->default_packet_handler(): Message 0, LIBSWO_PACKET_TYPE_OF 
debg|decoder_swo.c:66->default_packet_handler(): Message 0, LIBSWO_PACKET_TYPE_DWT_PC_SAMPLE 
debg|decoder_swo.c:66->default_packet_handler(): Message 0, LIBSWO_PACKET_TYPE_OF 
debg|decoder_swo.c:66->default_packet_handler(): Message 0, LIBSWO_PACKET_TYPE_DWT_PC_SAMPLE 
debg|decoder_swo.c:66->default_packet_handler(): Message 0, LIBSWO_PACKET_TYPE_OF 
debg|decoder_swo.c:66->default_packet_handler(): Message 0, LIBSWO_PACKET_TYPE_DWT_PC_SAMPLE 
debg|decoder_swo.c:66->default_packet_handler(): Message 0, LIBSWO_PACKET_TYPE_OF 
debg|decoder_swo.c:66->default_packet_handler(): Message 0, LIBSWO_PACKET_TYPE_DWT_PC_SAMPLE 
debg|decoder_swo.c:66->default_packet_handler(): Message 0, LIBSWO_PACKET_TYPE_OF 
debg|decoder_swo.c:66->default_packet_handler(): Message 0, LIBSWO_PACKET_TYPE_DWT_PC_SAMPLE 
debg|decoder_swo.c:66->default_packet_handler(): Message 0, LIBSWO_PACKET_TYPE_OF 
debg|decoder_swo.c:66->default_packet_handler(): Message 0, LIBSWO_PACKET_TYPE_DWT_PC_SAMPLE 
debg|decoder_swo.c:66->default_packet_handler(): Message 0, LIBSWO_PACKET_TYPE_OF 
debg|decoder_swo.c:66->default_packet_handler(): Message 0, LIBSWO_PACKET_TYPE_DWT_PC_SAMPLE 
debg|decoder_swo.c:66->default_packet_handler(): Message 0, LIBSWO_PACKET_TYPE_OF 
debg|decoder_swo.c:66->default_packet_handler(): Message 0, LIBSWO_PACKET_TYPE_DWT_PC_SAMPLE 
debg|decoder_swo.c:66->default_packet_handler(): Message 0, LIBSWO_PACKET_TYPE_OF 
debg|decoder_swo.c:66->default_packet_handler(): Message 0, LIBSWO_PACKET_TYPE_DWT_PC_SAMPLE 
debg|decoder_swo.c:66->default_packet_handler(): Message 0, LIBSWO_PACKET_TYPE_OF 
debg|decoder_swo.c:66->default_packet_handler(): Message 0, LIBSWO_PACKET_TYPE_DWT_PC_SAMPLE 
debg|decoder_swo.c:66->default_packet_handler(): Message 0, LIBSWO_PACKET_TYPE_OF 
debg|decoder_swo.c:66->default_packet_handler(): Message 0, LIBSWO_PACKET_TYPE_DWT_PC_SAMPLE 
debg|decoder_swo.c:66->default_packet_handler(): Message 0, LIBSWO_PACKET_TYPE_OF 
debg|decoder_swo.c:214->decodewarn|processing.c:49->processing_data_out_default(): No callback defined yet
r_swo_data_in(): decoded 21
debg|decoder_swo.c:216->decoder_swo_data_in(): total size decoded 840
debg|decoder_swo.c:217->decoder_swo_data_in(): Total number of decoded packet 1423
debg|decoder_swo.c:239->decoder_swo_data_out(): Number of data received 840
debg|pkt_converter.c:594->pkt_convert(): Number of packet received 21
debg|decoder_swo.c:66->default_packet_handler(): Message 0, LIBSWO_PACKET_TYPE_DWT_PC_SAMPLE 
debg|decoder_swo.c:66->default_packet_handler(): Message 0, LIBSWO_PACKET_TYPE_OF 
debg|decoder_swo.c:66->default_packet_handler(): Message 0, LIBSWO_PACKET_TYPE_DWT_PC_SAMPLE 
debg|decoder_swo.c:66->default_packet_handler(): Message 0, LIBSWO_PACKET_TYPE_OF 
debg|decoder_swo.c:66->default_packet_handler(): Message 0, LIBSWO_PACKET_TYPE_DWT_PC_SAMPLE 
debg|decoder_swo.c:66->default_packet_handler(): Message 0, LIBSWO_PACKET_TYPE_OF 
debg|decoder_swo.c:66->default_packet_handler(): Message 0, LIBSWO_PACKET_TYPE_DWT_PC_SAMPLE 
debg|decoder_swo.c:66->default_packet_handler(): Message 0, LIBSWO_PACKET_TYPE_OF 
debg|decoder_swo.c:66->default_packet_handler(): Message 0, LIBSWO_PACKET_TYPE_DWT_PC_SAMPLE 
debg|decoder_swo.c:66->default_packet_handler(): Message 0, LIBSWO_PACKET_TYPE_OF 
debg|decoder_swo.c:66->default_packet_handler(): Message 0, LIBSWO_PACKET_TYPE_DWT_PC_SAMPLE 
debg|decoder_swo.c:66->default_packet_handler(): Message 0, LIBSWO_PACKET_TYPE_OF 
debg|decoder_swo.c:66->default_packet_handler(): Message 0, LIBSWO_PACKET_TYPE_DWT_PC_SAMPLE 
debg|decoder_swo.c:66->default_packet_handler(): Message 0, LIBSWO_PACKET_TYPE_OF 
debg|decoder_swo.c:66->default_packet_handler(): Message 0, LIBSWO_PACKET_TYPE_DWT_PC_SAMPLE 
debg|decoder_swo.c:66->default_packet_handler(): Message 0, LIBSWO_PACKET_TYPE_OF 
debg|decoder_swo.c:66->default_packet_handler(): Message 0, LIBSWO_PACKET_TYPE_DWT_PC_SAMPLE 
debg|decoder_swo.c:66->default_packet_handler(): Message 0, LIBSWO_PACKET_TYPE_OF 
debg|decoder_swo.c:66->default_packet_handler(): Message 0, LIBSWO_PACKET_TYPE_DWT_PC_SAMPLE 
debg|decoder_swo.c:66->default_packet_handler(): Message 0, LIBSWO_PACKET_TYPE_OF 
debg|decoder_swo.c:66->default_packet_handler(): Message 0, LIBSWO_PACKET_TYPE_DWT_PC_SAMPLE 
debg|decoder_swo.c:66->default_packet_handler(): Message 0, LIBSWO_PACKET_TYPE_OF 
debg|decoder_swo.c:66->default_packet_handler(): Message 0, LIBSWO_PACKET_TYPE_DWT_PC_SAMPLE 
debg|decoder_swo.c:66->default_packet_handler(): Message 0, LIBSWO_PACKET_TYPE_OF 
debg|decoder_swo.c:66->default_packet_handler(): Message 0, LIBSWO_PACKET_TYPE_DWT_PC_SAMPLE 
debg|decoder_swo.c:66->default_packet_handler(): Message 0, LIBSWO_PACKET_TYPE_OF 
debg|decoder_swo.c:66->default_packet_handler(): Message 0, LIBSWO_PACKET_TYPE_DWT_PC_SAMPLE 
debg|decoder_swo.c:66->default_packet_handler(): Message 0, LIBSWO_PACKET_TYPE_OF 
debg|decoder_swo.c:66->default_packet_handler(): Message 0, LIBSWO_PACKET_TYPE_DWT_PC_SAMPLE 
debg|decoder_swo.c:66->default_packet_handler(): Message 0, LIBSWO_PACKET_TYPE_OF 
debg|decoder_swo.c:66->default_packet_handler(): Message 0, LIBSWO_PACKET_TYPE_DWT_PC_SAMPLE 
debg|decoder_swo.c:66->default_packet_handler(): Message 0, LIBSWO_PACKET_TYPE_OF 
debg|decoder_swo.c:66->default_packet_handler(): Message 0, LIBSWO_PACKET_TYPE_DWT_PC_SAMPLE 
debg|decoder_swo.c:66->default_packet_handler(): Message 0, LIBSWO_PACKET_TYPE_OF 
debg|decoder_swo.c:66->default_packet_handler(): Message 0, LIBSWO_PACKET_TYPE_DWT_PC_SAMPLE 
debg|decoder_swo.c:66->default_packet_handler(): Message 0, LIBSWO_PACKET_TYPE_OF 
debg|decoder_swo.c:66->default_packet_handler(): Message 0, LIBSWO_PACKET_TYPE_DWT_PC_SAMPLE 
debg|decoder_swo.c:66->default_packet_handler(): Message 0, LIBSWO_PACKET_TYPE_OF 
debg|decoder_swo.c:66->default_packet_handler(): Message 0, LIBSWO_PACKET_TYPE_DWT_PC_SAMPLE 
debg|decoder_swo.c:66->default_packet_handler(): Message 0, LIBSWO_PACKET_TYPE_OF 
debg|decoder_swo.c:66->default_packet_handler(): Message 0, LIBSWO_PACKET_TYPE_DWT_PC_SAMPLE 
debg|decoder_swo.c:66->default_packet_handler(): Message 0, LIBSWO_PACKET_TYPE_OF 
debg|decoder_swo.c:66->default_packet_handler(): Meswarn|processing.c:49->processing_data_out_default(): No callback defined yet
sage 0, LIBSWO_PACKET_TYPE_DWT_PC_SAMPLE 
debg|decoder_swo.c:214->decoder_swo_data_in(): decoded 22
debg|decoder_swo.c:216->decoder_swo_data_in(): total size decoded 880
debg|decoder_swo.c:217->decoder_swo_data_in(): Total number of decoded packet 1445
debg|decoder_swo.c:239->decoder_swo_data_out(): Number of data received 880
debg|pkt_converter.c:594->pkt_convert(): Number of packet received 22
debg|decoder_swo.c:66->default_packet_handler(): Message 0, LIBSWO_PACKET_TYPE_OF 
debg|decoder_swo.c:66->default_packet_handler(): Message 0, LIBSWO_PACKET_TYPE_DWT_PC_SAMPLE 
debg|decoder_swo.c:66->default_packet_handler(): Message 0, LIBSWO_PACKET_TYPE_OF 
debg|decoder_swo.c:66->default_packet_handler(): Message 0, LIBSWO_PACKET_TYPE_DWT_PC_SAMPLE 
debg|decoder_swo.c:66->default_packet_handler(): Message 0, LIBSWO_PACKET_TYPE_OF 
debg|decoder_swo.c:66->default_packet_handler(): Message 0, LIBSWO_PACKET_TYPE_DWT_PC_SAMPLE 
debg|decoder_swo.c:66->default_packet_handler(): Message 0, LIBSWO_PACKET_TYPE_OF 
debg|decoder_swo.c:66->default_packet_handler(): Message 0, LIBSWO_PACKET_TYPE_DWT_PC_SAMPLE 
debg|decoder_swo.c:66->default_packet_handler(): Message 0, LIBSWO_PACKET_TYPE_OF 
debg|decoder_swo.c:66->default_packet_handler(): Message 0, LIBSWO_PACKET_TYPE_DWT_PC_SAMPLE 
debg|decoder_swo.c:66->default_packet_handler(): Message 0, LIBSWO_PACKET_TYPE_OF 
debg|decoder_swo.c:66->default_packet_handler(): Message 0, LIBSWO_PACKET_TYPE_DWT_PC_SAMPLE 
debg|decoder_swo.c:66->default_packet_handler(): Message 0, LIBSWO_PACKET_TYPE_OF 
debg|decoder_swo.c:66->default_packet_handler(): Message 0, LIBSWO_PACKET_TYPE_DWT_PC_SAMPLE 
debg|decoder_swo.c:66->default_packet_handler(): Message 0, LIBSWO_PACKET_TYPE_OF 
debg|decoder_swo.c:66->default_packet_handler(): Message 0, LIBSWO_PACKET_TYPE_DWT_PC_SAMPLE 
debg|decoder_swo.c:66->default_packet_handler(): Message 0, LIBSWO_PACKET_TYPE_OF 
debg|decoder_swo.c:66->default_packet_handler(): Message 0, LIBSWO_PACKET_TYPE_DWT_PC_SAMPLE 
debg|decoder_swo.c:66->default_packet_handler(): Message 0, LIBSWO_PACKET_TYPE_OF 
debg|decoder_swo.c:66->default_packet_handler(): Message 0, LIBSWO_PACKET_TYPE_DWT_PC_SAMPLE 
debg|decoder_swo.c:66->default_packet_handler(): Message 0, LIBSWO_PACKET_TYPE_OF 
debg|decoder_swo.c:66->default_packet_handler(): Message 0, LIBSWO_PACKET_TYPE_DWT_PC_SAMPLE 
debg|decoder_swo.c:66->default_packet_handler(): Message 0, LIBSWO_PACKET_TYPE_OF 
debg|decoder_swo.c:66->default_packet_handler(): Message 0, LIBSWO_PACKET_TYPE_DWT_PC_SAMPLE 
debg|decoder_swo.c:66->default_packet_handler(): Message 0, LIBSWO_PACKET_TYPE_OF 
debg|decoder_swo.c:66->default_packet_handler(): Message 0, LIBSWO_PACKET_TYPE_DWT_PC_SAMPLE 
debg|decoder_swo.c:66->default_packet_handler(): Message 0, LIBSWO_PACKET_TYPE_OF 
debg|decoder_swo.c:66->default_packet_handler(): Message 0, LIBSWO_PACKET_TYPE_DWT_PC_SAMPLE 
debg|decoder_swo.c:66->default_packet_handler(): Message 0, LIBSWO_PACKET_TYPE_OF 
debg|decoder_swo.c:66->default_packet_handler(): Message 0, LIBSWO_PACKET_TYPE_DWT_PC_SAMPLE 
debg|decoder_swo.c:66->default_packet_handler(): Message 0, LIBSWO_PACKET_TYPE_OF 
debg|decoder_swo.c:66->default_packet_handler(): Message 0, LIBSWO_PACKET_TYPE_DWT_PC_SAMPLE 
debg|decoder_swo.c:66->default_packet_handler(): Message 0, LIBSWO_PACKET_TYPE_OF 
debg|decoder_swo.c:66->default_packet_handler(): Message 0, LIBSWO_PACKET_TYPE_DWT_PC_SAMPLE 
debg|decoder_swo.c:66->default_packet_handler(): Message 0, LIBSWO_PACKET_TYPE_OF 
debg|decoder_swo.c:66->default_packet_handler(): Message 0, LIBSWO_PACKET_TYPE_DWT_PC_SAMPLE 
debg|decoder_swo.c:66->default_packet_handler(): Message 0, LIBSWO_PACKET_TYPE_OF 
debg|decoder_swo.c:66->default_packet_handler(): Message 0, LIBSWO_PACKET_TYPE_DWT_PC_SAMPLE 
debg|decoder_swo.c:66->default_packet_handler(): Message 0, LIBSWO_PACKET_TYPE_OF 
debg|decoder_swo.c:66->default_packet_handler(): Message 0, LIBSWO_PACKET_TYPE_DWT_PC_SAMPLE 
debg|decoder_swo.c:66->default_packet_handler(): Message 0, LIBSWO_PACKET_TYPE_OF 
debg|decoder_swo.c:66->default_packet_handler(): Message 0, LIBSWO_PACKET_warn|processing.c:49->processing_data_out_default(): No callback defined yet
TYPE_DWT_PC_SAMPLE 
debg|decoder_swo.c:66->default_packet_handler(): Message 0, LIBSWO_PACKET_TYPE_OF 
debg|decoder_swo.c:214->decoder_swo_data_in(): decoded 21
debg|decoder_swo.c:216->decoder_swo_data_in(): total size decoded 840
debg|decoder_swo.c:217->decoder_swo_data_in(): Total number of decoded packet 1466
debg|decoder_swo.c:239->decoder_swo_data_out(): Number of data received 840
debg|pkt_converter.c:594->pkt_convert(): Number of packet received 21
debg|decoder_swo.c:66->default_packet_handler(): Message 0, LIBSWO_PACKET_TYPE_DWT_PC_SAMPLE 
debg|decoder_swo.c:66->default_packet_handler(): Message 0, LIBSWO_PACKET_TYPE_OF 
debg|decoder_swo.c:66->default_packet_handler(): Message 0, LIBSWO_PACKET_TYPE_DWT_PC_SAMPLE 
debg|decoder_swo.c:66->default_packet_handler(): Message 0, LIBSWO_PACKET_TYPE_OF 
debg|decoder_swo.c:66->default_packet_handler(): Message 0, LIBSWO_PACKET_TYPE_DWT_PC_SAMPLE 
debg|decoder_swo.c:66->default_packet_handler(): Message 0, LIBSWO_PACKET_TYPE_OF 
debg|decoder_swo.c:66->default_packet_handler(): Message 0, LIBSWO_PACKET_TYPE_DWT_PC_SAMPLE 
debg|decoder_swo.c:66->default_packet_handler(): Message 0, LIBSWO_PACKET_TYPE_OF 
debg|decoder_swo.c:66->default_packet_handler(): Message 0, LIBSWO_PACKET_TYPE_DWT_PC_SAMPLE 
debg|decoder_swo.c:66->default_packet_handler(): Message 0, LIBSWO_PACKET_TYPE_OF 
debg|decoder_swo.c:66->default_packet_handler(): Message 0, LIBSWO_PACKET_TYPE_DWT_PC_SAMPLE 
debg|decoder_swo.c:66->default_packet_handler(): Message 0, LIBSWO_PACKET_TYPE_OF 
debg|decoder_swo.c:66->default_packet_handler(): Message 0, LIBSWO_PACKET_TYPE_DWT_PC_SAMPLE 
debg|decoder_swo.c:66->default_packet_handler(): Message 0, LIBSWO_PACKET_TYPE_OF 
debg|decoder_swo.c:66->default_packet_handler(): Message 0, LIBSWO_PACKET_TYPE_DWT_PC_SAMPLE 
debg|decoder_swo.c:66->default_packet_handler(): Message 0, LIBSWO_PACKET_TYPE_OF 
debg|decoder_swo.c:66->default_packet_handler(): Message 0, LIBSWO_PACKET_TYPE_DWT_PC_SAMPLE 
debg|decoder_swo.c:66->default_packet_handler(): Message 0, LIBSWO_PACKET_TYPE_OF 
debg|decoder_swo.c:66->default_packet_handler(): Message 0, LIBSWO_PACKET_TYPE_DWT_PC_SAMPLE 
debg|decoder_swo.c:66->default_packet_handler(): Message 0, LIBSWO_PACKET_TYPE_OF 
debg|decoder_swo.c:66->default_packet_handler(): Message 0, LIBSWO_PACKET_TYPE_DWT_PC_SAMPLE 
debg|decoder_swo.c:66->default_packet_handler(): Message 0, LIBSWO_PACKET_TYPE_OF 
debg|decoder_swo.c:66->default_packet_handler(): Message 0, LIBSWO_PACKET_TYPE_DWT_PC_SAMPLE 
debg|decoder_swo.c:66->default_packet_handler(): Message 0, LIBSWO_PACKET_TYPE_OF 
debg|decoder_swo.c:66->default_packet_handler(): Message 0, LIBSWO_PACKET_TYPE_DWT_PC_SAMPLE 
debg|decoder_swo.c:66->default_packet_handler(): Message 0, LIBSWO_PACKET_TYPE_OF 
debg|decoder_swo.c:66->default_packet_handler(): Message 0, LIBSWO_PACKET_TYPE_DWT_PC_SAMPLE 
debg|decoder_swo.c:66->default_packet_handler(): Message 0, LIBSWO_PACKET_TYPE_OF 
debg|decoder_swo.c:66->default_packet_handler(): Message 0, LIBSWO_PACKET_TYPE_DWT_PC_SAMPLE 
debg|decoder_swo.c:66->default_packet_handler(): Message 0, LIBSWO_PACKET_TYPE_OF 
debg|decoder_swo.c:66->default_packet_handler(): Message 0, LIBSWO_PACKET_TYPE_DWT_PC_SAMPLE 
debg|decoder_swo.c:66->default_packet_handler(): Message 0, LIBSWO_PACKET_TYPE_OF 
debg|decoder_swo.c:66->default_packet_handler(): Message 0, LIBSWO_PACKET_TYPE_DWT_PC_SAMPLE 
debg|decoder_swo.c:66->default_packet_handler(): Message 0, LIBSWO_PACKET_TYPE_OF 
debg|decoder_swo.c:66->default_packet_handler(): Message 0, LIBSWO_PACKET_TYPE_DWT_PC_SAMPLE 
debg|decoder_swo.c:66->default_packet_handler(): Message 0, LIBSWO_PACKET_TYPE_OF 
debg|decoder_swo.c:66->default_packet_handler(): Message 0, LIBSWO_PACKET_TYPE_DWT_PC_SAMPLE 
debg|decoder_swo.c:66->default_packet_handler(): Message 0, LIBSWO_PACKET_TYPE_OF 
debg|decoder_swo.c:66->default_packet_handler(): Message 0, LIBSWO_PACKET_TYPE_DWT_PC_SAMPLE 
debg|decoder_swo.c:66->default_packet_handler(): Message 0, LIBSWO_PACKET_TYPE_OF 
debg|decoder_swo.c:66->default_packet_handler(): Message 0, LIBSWO_PACKET_TYPE_DWT_PC_SAMPLE 
dewarn|processing.c:49->processing_data_out_default(): No callback defined yet
bg|decoder_swo.c:66->default_packet_handler(): Message 0, LIBSWO_PACKET_TYPE_OF 
debg|decoder_swo.c:214->decoder_swo_data_in(): decoded 21
debg|decoder_swo.c:216->decoder_swo_data_in(): total size decoded 840
debg|decoder_swo.c:217->decoder_swo_data_in(): Total number of decoded packet 1487
debg|decoder_swo.c:239->decoder_swo_data_out(): Number of data received 840
debg|pkt_converter.c:594->pkt_convert(): Number of packet received 21
debg|decoder_swo.c:66->default_packet_handler(): Message 0, LIBSWO_PACKET_TYPE_DWT_PC_SAMPLE 
debg|decoder_swo.c:66->default_packet_handler(): Message 0, LIBSWO_PACKET_TYPE_OF 
debg|decoder_swo.c:66->default_packet_handler(): Message 0, LIBSWO_PACKET_TYPE_DWT_PC_SAMPLE 
debg|decoder_swo.c:66->default_packet_handler(): Message 0, LIBSWO_PACKET_TYPE_OF 
debg|decoder_swo.c:66->default_packet_handler(): Message 0, LIBSWO_PACKET_TYPE_DWT_PC_SAMPLE 
debg|decoder_swo.c:66->default_packet_handler(): Message 0, LIBSWO_PACKET_TYPE_OF 
debg|decoder_swo.c:66->default_packet_handler(): Message 0, LIBSWO_PACKET_TYPE_DWT_PC_SAMPLE 
debg|decoder_swo.c:66->default_packet_handler(): Message 0, LIBSWO_PACKET_TYPE_OF 
debg|decoder_swo.c:66->default_packet_handler(): Message 0, LIBSWO_PACKET_TYPE_DWT_PC_SAMPLE 
debg|decoder_swo.c:66->default_packet_handler(): Message 0, LIBSWO_PACKET_TYPE_OF 
debg|decoder_swo.c:66->default_packet_handler(): Message 0, LIBSWO_PACKET_TYPE_DWT_PC_SAMPLE 
debg|decoder_swo.c:66->default_packet_handler(): Message 0, LIBSWO_PACKET_TYPE_OF 
debg|decoder_swo.c:66->default_packet_handler(): Message 0, LIBSWO_PACKET_TYPE_DWT_PC_SAMPLE 
debg|decoder_swo.c:66->default_packet_handler(): Message 0, LIBSWO_PACKET_TYPE_OF 
debg|decoder_swo.c:66->default_packet_handler(): Message 0, LIBSWO_PACKET_TYPE_DWT_PC_SAMPLE 
debg|decoder_swo.c:66->default_packet_handler(): Message 0, LIBSWO_PACKET_TYPE_OF 
debg|decoder_swo.c:66->default_packet_handler(): Message 0, LIBSWO_PACKET_TYPE_DWT_PC_SAMPLE 
debg|decoder_swo.c:66->default_packet_handler(): Message 0, LIBSWO_PACKET_TYPE_OF 
debg|decoder_swo.c:66->default_packet_handler(): Message 0, LIBSWO_PACKET_TYPE_DWT_PC_SAMPLE 
debg|decoder_swo.c:66->default_packet_handler(): Message 0, LIBSWO_PACKET_TYPE_OF 
debg|decoder_swo.c:66->default_packet_handler(): Message 0, LIBSWO_PACKET_TYPE_DWT_PC_SAMPLE 
debg|decoder_swo.c:66->default_packet_handler(): Message 0, LIBSWO_PACKET_TYPE_OF 
debg|decoder_swo.c:66->default_packet_handler(): Message 0, LIBSWO_PACKET_TYPE_DWT_PC_SAMPLE 
debg|decoder_swo.c:66->default_packet_handler(): Message 0, LIBSWO_PACKET_TYPE_OF 
debg|decoder_swo.c:66->default_packet_handler(): Message 0, LIBSWO_PACKET_TYPE_DWT_PC_SAMPLE 
debg|decoder_swo.c:66->default_packet_handler(): Message 0, LIBSWO_PACKET_TYPE_OF 
debg|decoder_swo.c:66->default_packet_handler(): Message 0, LIBSWO_PACKET_TYPE_DWT_PC_SAMPLE 
debg|decoder_swo.c:66->default_packet_handler(): Message 0, LIBSWO_PACKET_TYPE_OF 
debg|decoder_swo.c:66->default_packet_handler(): Message 0, LIBSWO_PACKET_TYPE_DWT_PC_SAMPLE 
debg|decoder_swo.c:66->default_packet_handler(): Message 0, LIBSWO_PACKET_TYPE_OF 
debg|decoder_swo.c:66->default_packet_handler(): Message 0, LIBSWO_PACKET_TYPE_DWT_PC_SAMPLE 
debg|decoder_swo.c:66->default_packet_handler(): Message 0, LIBSWO_PACKET_TYPE_OF 
debg|decoder_swo.c:66->default_packet_handler(): Message 0, LIBSWO_PACKET_TYPE_DWT_PC_SAMPLE 
debg|decoder_swo.c:66->default_packet_handler(): Message 0, LIBSWO_PACKET_TYPE_OF 
debg|decoder_swo.c:66->default_packet_handler(): Message 0, LIBSWO_PACKET_TYPE_DWT_PC_SAMPLE 
debg|decoder_swo.c:66->default_packet_handler(): Message 0, LIBSWO_PACKET_TYPE_OF 
debg|decoder_swo.c:66->default_packet_handler(): Message 0, LIBSWO_PACKET_TYPE_DWT_PC_SAMPLE 
debg|decoder_swo.c:66->default_packet_handler(): Message 0, LIBSWO_PACKET_TYPE_OF 
debg|decoder_swo.c:66->default_packet_handler(): Message 0, LIBSWO_PACKET_TYPE_DWT_PC_SAMPLE 
debg|decoder_swo.c:66->default_packet_handler(): Message 0, LIBSWO_PACKET_TYPE_OF 
debg|decoder_swo.c:66->default_packet_handler(): Message 0, LIBSWO_PACKET_TYPE_DWT_PC_SAMPLE 
debg|decoder_swo.c:66->dwarn|processing.c:49->processing_data_out_default(): No callback defined yet
efault_packet_handler(): Message 0, LIBSWO_PACKET_TYPE_OF 
debg|decoder_swo.c:66->default_packet_handler(): Message 0, LIBSWO_PACKET_TYPE_DWT_PC_SAMPLE 
debg|decoder_swo.c:214->decoder_swo_data_in(): decoded 22
debg|decoder_swo.c:216->decoder_swo_data_in(): total size decoded 880
debg|decoder_swo.c:217->decoder_swo_data_in(): Total number of decoded packet 1509
debg|decoder_swo.c:239->decoder_swo_data_out(): Number of data received 880
debg|pkt_converter.c:594->pkt_convert(): Number of packet received 22
debg|decoder_swo.c:66->default_packet_handler(): Message 0, LIBSWO_PACKET_TYPE_OF 
debg|decoder_swo.c:66->default_packet_handler(): Message 0, LIBSWO_PACKET_TYPE_DWT_PC_SAMPLE 
debg|decoder_swo.c:66->default_packet_handler(): Message 0, LIBSWO_PACKET_TYPE_OF 
debg|decoder_swo.c:66->default_packet_handler(): Message 0, LIBSWO_PACKET_TYPE_DWT_PC_SAMPLE 
debg|decoder_swo.c:66->default_packet_handler(): Message 0, LIBSWO_PACKET_TYPE_OF 
debg|decoder_swo.c:66->default_packet_handler(): Message 0, LIBSWO_PACKET_TYPE_DWT_PC_SAMPLE 
debg|decoder_swo.c:66->default_packet_handler(): Message 0, LIBSWO_PACKET_TYPE_OF 
debg|decoder_swo.c:66->default_packet_handler(): Message 0, LIBSWO_PACKET_TYPE_DWT_PC_SAMPLE 
debg|decoder_swo.c:66->default_packet_handler(): Message 0, LIBSWO_PACKET_TYPE_OF 
debg|decoder_swo.c:66->default_packet_handler(): Message 0, LIBSWO_PACKET_TYPE_DWT_PC_SAMPLE 
debg|decoder_swo.c:66->default_packet_handler(): Message 0, LIBSWO_PACKET_TYPE_OF 
debg|decoder_swo.c:66->default_packet_handler(): Message 0, LIBSWO_PACKET_TYPE_DWT_PC_SAMPLE 
debg|decoder_swo.c:66->default_packet_handler(): Message 0, LIBSWO_PACKET_TYPE_OF 
debg|decoder_swo.c:66->default_packet_handler(): Message 0, LIBSWO_PACKET_TYPE_DWT_PC_SAMPLE 
debg|decoder_swo.c:66->default_packet_handler(): Message 0, LIBSWO_PACKET_TYPE_OF 
debg|decoder_swo.c:66->default_packet_handler(): Message 0, LIBSWO_PACKET_TYPE_DWT_PC_SAMPLE 
debg|decoder_swo.c:66->default_packet_handler(): Message 0, LIBSWO_PACKET_TYPE_OF 
debg|decoder_swo.c:66->default_packet_handler(): Message 0, LIBSWO_PACKET_TYPE_DWT_PC_SAMPLE 
debg|decoder_swo.c:66->default_packet_handler(): Message 0, LIBSWO_PACKET_TYPE_OF 
debg|decoder_swo.c:66->default_packet_handler(): Message 0, LIBSWO_PACKET_TYPE_DWT_PC_SAMPLE 
debg|decoder_swo.c:66->default_packet_handler(): Message 0, LIBSWO_PACKET_TYPE_OF 
debg|decoder_swo.c:66->default_packet_handler(): Message 0, LIBSWO_PACKET_TYPE_DWT_PC_SAMPLE 
debg|decoder_swo.c:66->default_packet_handler(): Message 0, LIBSWO_PACKET_TYPE_OF 
debg|decoder_swo.c:66->default_packet_handler(): Message 0, LIBSWO_PACKET_TYPE_DWT_PC_SAMPLE 
debg|decoder_swo.c:66->default_packet_handler(): Message 0, LIBSWO_PACKET_TYPE_OF 
debg|decoder_swo.c:66->default_packet_handler(): Message 0, LIBSWO_PACKET_TYPE_DWT_PC_SAMPLE 
debg|decoder_swo.c:66->default_packet_handler(): Message 0, LIBSWO_PACKET_TYPE_OF 
debg|decoder_swo.c:66->default_packet_handler(): Message 0, LIBSWO_PACKET_TYPE_DWT_PC_SAMPLE 
debg|decoder_swo.c:66->default_packet_handler(): Message 0, LIBSWO_PACKET_TYPE_OF 
debg|decoder_swo.c:66->default_packet_handler(): Message 0, LIBSWO_PACKET_TYPE_DWT_PC_SAMPLE 
debg|decoder_swo.c:66->default_packet_handler(): Message 0, LIBSWO_PACKET_TYPE_OF 
debg|decoder_swo.c:66->default_packet_handler(): Message 0, LIBSWO_PACKET_TYPE_DWT_PC_SAMPLE 
debg|decoder_swo.c:66->default_packet_handler(): Message 0, LIBSWO_PACKET_TYPE_OF 
debg|decoder_swo.c:66->default_packet_handler(): Message 0, LIBSWO_PACKET_TYPE_DWT_PC_SAMPLE 
debg|decoder_swo.c:66->default_packet_handler(): Message 0, LIBSWO_PACKET_TYPE_OF 
debg|decoder_swo.c:66->default_packet_handler(): Message 0, LIBSWO_PACKET_TYPE_DWT_PC_SAMPLE 
debg|decoder_swo.c:66->default_packet_handler(): Message 0, LIBSWO_PACKET_TYPE_OF 
debg|decoder_swo.c:66->default_packet_handler(): Message 0, LIBSWO_PACKET_TYPE_DWT_PC_SAMPLE 
debg|decoder_swo.c:66->default_packet_handler(): Message 0, LIBSWO_PACKET_TYPE_OF 
debg|decoder_swo.c:66->default_packet_handler(): Message 0, LIBSWO_PACKET_TYPE_DWT_PC_SAMPLE 
debg|decoder_swo.c:66->default_packet_handler(warn|processing.c:49->processing_data_out_default(): No callback defined yet
): Message 0, LIBSWO_PACKET_TYPE_OF 
debg|decoder_swo.c:66->default_packet_handler(): Message 0, LIBSWO_PACKET_TYPE_DWT_PC_SAMPLE 
debg|decoder_swo.c:66->default_packet_handler(): Message 0, LIBSWO_PACKET_TYPE_OF 
debg|decoder_swo.c:214->decoder_swo_data_in(): decoded 21
debg|decoder_swo.c:216->decoder_swo_data_in(): total size decoded 840
debg|decoder_swo.c:217->decoder_swo_data_in(): Total number of decoded packet 1530
debg|decoder_swo.c:239->decoder_swo_data_out(): Number of data received 840
debg|pkt_converter.c:594->pkt_convert(): Number of packet received 21
debg|decoder_swo.c:66->default_packet_handler(): Message 0, LIBSWO_PACKET_TYPE_DWT_PC_SAMPLE 
debg|decoder_swo.c:66->default_packet_handler(): Message 0, LIBSWO_PACKET_TYPE_OF 
debg|decoder_swo.c:66->default_packet_handler(): Message 0, LIBSWO_PACKET_TYPE_DWT_PC_SAMPLE 
debg|decoder_swo.c:66->default_packet_handler(): Message 0, LIBSWO_PACKET_TYPE_OF 
debg|decoder_swo.c:66->default_packet_handler(): Message 0, LIBSWO_PACKET_TYPE_DWT_PC_SAMPLE 
debg|decoder_swo.c:66->default_packet_handler(): Message 0, LIBSWO_PACKET_TYPE_OF 
debg|decoder_swo.c:66->default_packet_handler(): Message 0, LIBSWO_PACKET_TYPE_DWT_PC_SAMPLE 
debg|decoder_swo.c:66->default_packet_handler(): Message 0, LIBSWO_PACKET_TYPE_OF 
